  can1  70B   [1]  00              nmt connect 64B TPDO
  can1  64B   [2]  00 8A           64B(640(1600) + 0B(11)) RPDO
  can1  5CB   [5]  FF FF 26 94 3E  5CB(5C0(1472) + 0B(11)) TPDO
  can1  64B   [2]  00 8A
  can1  5CB   [5]  FF FF 26 94 3E
  can1  64B   [4]  00 01 00 03
  can1  5CB   [5]  00 00 03 ED 3E
  can1  64B   [2]  00 8A
  can1  5CB   [5]  FF FF 26 94 3E
  can1  64B   [2]  01 02
  can1  5CB   [5]  00 00 00 00 3E
  can1  64B   [2]  00 43
  can1  5CB   [5]  00 00 00 0B 3E
  can1  64B   [2]  00 FF
  can1  5CB   [5]  00 00 00 01 3E
  can1  64B   [4]  00 2A 00 02
  can1  5CB   [5]  00 00 00 00 3E
  can1  64B   [4]  00 01 00 03
  can1  5CB   [5]  00 00 03 ED 3E
  can1  64B   [4]  00 01 00 03
  can1  5CB   [5]  00 00 03 ED 3E
  can1  64B   [4]  02 08 00 02
  can1  5CB   [5]  00 00 00 02 3E
  can1  64B   [4]  00 01 00 04
  can1  5CB   [5]  08 F6 F8 63 3E
  can1  64B   [4]  02 08 00 03
  can1  5CB   [5]  00 00 00 00 3E
  can1  64B   [4]  02 01 00 06
  can1  5CB   [5]  00 00 00 04 3E
  can1  64B   [4]  02 08 00 04
  can1  5CB   [5]  00 00 00 0B 3E
  can1  64B   [2]  00 25
  can1  5CB   [5]  00 00 00 46 3E
  can1  64B   [4]  02 08 00 05
  can1  5CB   [5]  00 00 00 04 3E
  can1  64B   [2]  01 FB
  can1  5CB   [5]  00 00 00 04 3E
  can1  64B   [2]  01 FC
  can1  5CB   [5]  00 00 00 00 3E
  can1  64B   [2]  02 02
  can1  5CB   [5]  00 00 00 02 3E
  can1  64B   [2]  02 24
  can1  5CB   [5]  00 00 05 21 3E
  can1  64B   [2]  00 D3
  can1  5CB   [5]  00 00 00 00 3E
  can1  64B   [2]  00 4E
  can1  5CB   [5]  00 00 00 03 3E
  can1  64B   [2]  00 D6
  can1  5CB   [5]  00 00 00 00 3E
  can1  64B   [2]  00 1F
  can1  5CB   [5]  00 00 0C 26 3E
  can1  64B   [2]  00 F9
  can1  5CB   [5]  00 00 00 00 3E
  can1  64B   [2]  00 D4
  can1  5CB   [5]  00 00 00 00 3E
  can1  64B   [2]  00 02
  can1  5CB   [5]  00 00 00 00 3E
  can1  64B   [2]  00 22
  can1  5CB   [5]  00 00 00 00 3E
  can1  64B   [4]  00 05 00 03
  can1  5CB   [5]  00 00 00 00 3E
  can1  64B   [2]  00 29
  can1  5CB   [5]  00 00 00 04 3E
  can1  64B   [2]  00 04
  can1  5CB   [5]  00 00 00 00 3E
  can1  64B   [4]  00 EB 00 01
  can1  5CB   [5]  00 00 00 00 3E
  can1  64B   [2]  00 08
  can1  5CB   [5]  FF FF FF DE 3E
  can1  64B   [4]  00 EB 00 02
  can1  5CB   [5]  00 00 00 00 3E
  can1  64B   [2]  00 26
  can1  5CB   [5]  00 00 00 15 3E
  can1  64B   [2]  00 24
  can1  5CB   [5]  00 00 BB 89 3E
  can1  64B   [2]  00 9F
  can1  5CB   [5]  00 04 31 F2 3E
  can1  64B   [2]  01 00
  can1  5CB   [5]  00 00 00 00 3E
  can1  64B   [2]  00 9B
  can1  5CB   [5]  00 00 00 00 3E
  can1  64B   [4]  00 23 00 01
  can1  5CB   [5]  00 00 00 00 3E
  can1  64B   [2]  00 20
  can1  5CB   [5]  00 00 00 00 3E
  can1  64B   [2]  00 F9
  can1  5CB   [5]  00 00 00 00 3E
  can1  64B   [2]  00 9C
  can1  5CB   [5]  00 01 D6 B9 3E
  can1  64B   [2]  00 4E
  can1  5CB   [5]  00 00 00 03 3E
  can1  64B   [4]  00 01 00 04
  can1  5CB   [5]  08 F6 F8 63 3E
  can1  64B   [2]  00 F9
  can1  5CB   [5]  00 00 00 00 3E
  can1  64B   [4]  01 25 00 01
  can1  5CB   [5]  00 00 00 00 3E
  can1  64B   [2]  00 22
  can1  5CB   [5]  00 00 00 00 3E
  can1  64B   [4]  01 25 00 02
  can1  5CB   [5]  00 30 13 C0 3E
  can1  64B   [2]  00 29
  can1  5CB   [5]  00 00 00 05 3E
  can1  64B   [4]  01 25 00 03
  can1  5CB   [5]  00 00 00 00 3E
  can1  64B   [4]  00 EB 00 01
  can1  5CB   [5]  00 00 00 00 3E
  can1  64B   [4]  01 25 00 04
  can1  5CB   [5]  00 00 00 00 3E
  can1  64B   [4]  00 EB 00 02
  can1  5CB   [5]  00 00 00 00 3E
  can1  64B   [4]  01 25 00 05
  can1  5CB   [5]  00 00 00 00 3E
  can1  64B   [4]  01 25 00 05
  can1  5CB   [5]  00 00 00 00 3E
  can1  64B   [4]  01 25 00 06
  can1  5CB   [5]  00 00 00 00 3E
  can1  64B   [4]  01 25 00 07
  can1  5CB   [5]  00 00 00 00 3E
  can1  64B   [2]  00 22
  can1  5CB   [5]  00 00 00 00 3E
  can1  64B   [2]  01 0C
  can1  5CB   [5]  00 00 00 00 3E
  can1  64B   [4]  02 01 00 06
  can1  5CB   [5]  00 00 00 04 3E
  can1  64B   [4]  02 01 00 07
  can1  5CB   [5]  00 00 00 01 3E
  can1  64B   [2]  01 19
  can1  5CB   [5]  00 00 01 8C 3E
  can1  64B   [4]  00 48 00 04
  can1  5CB   [5]  00 00 64 0B 3E
  can1  64B   [2]  01 13
  can1  5CB   [5]  00 00 00 01 3E
  can1  64B   [2]  00 4E
  can1  5CB   [5]  00 00 00 03 3E
  can1  64B   [2]  00 AA
  can1  5CB   [5]  FF FB CE 0D 3E
  can1  64B   [2]  00 21
  can1  5CB   [5]  00 00 00 21 3E
  can1  64B   [2]  00 F9
  can1  5CB   [5]  00 00 00 00 3E
  can1  64B   [4]  01 F2 00 11
  can1  5CB   [5]  00 00 00 00 3E
  can1  64B   [4]  01 F2 00 14
  can1  5CB   [5]  00 00 00 00 3E
  can1  64B   [2]  00 22
  can1  5CB   [5]  00 00 00 00 3E
  can1  64B   [4]  01 F2 00 16
  can1  5CB   [5]  00 00 00 00 3E
  can1  64B   [4]  01 F2 00 03
  can1  5CB   [5]  00 00 00 00 3E
  can1  64B   [2]  00 29
  can1  5CB   [5]  00 00 00 06 3E
  can1  64B   [4]  01 F2 00 04
  can1  5CB   [5]  00 00 00 00 3E
  can1  64B   [4]  00 EB 00 01
  can1  5CB   [5]  00 00 00 00 3E
  can1  64B   [4]  00 EB 00 02
  can1  5CB   [5]  00 00 00 00 3E
  can1  64B   [2]  00 4E
  can1  5CB   [5]  00 00 00 03 3E
  can1  64B   [2]  00 1F
  can1  5CB   [5]  00 00 0C 26 3E
  can1  64B   [2]  00 F9
  can1  5CB   [5]  00 00 00 00 3E
  can1  64B   [2]  00 02
  can1  5CB   [5]  FF FF FF FF 3E
  can1  64B   [2]  00 22
  can1  5CB   [5]  00 00 00 00 3E
  can1  64B   [4]  00 05 00 03
  can1  5CB   [5]  00 00 00 00 3E
  can1  64B   [2]  00 29
  can1  5CB   [5]  00 00 00 07 3E
  can1  64B   [2]  00 04
  can1  5CB   [5]  00 00 00 00 3E
  can1  64B   [4]  00 EB 00 01
  can1  5CB   [5]  00 00 00 00 3E
  can1  64B   [2]  00 08
  can1  5CB   [5]  00 00 00 0F 3E
  can1  64B   [4]  00 EB 00 02
  can1  5CB   [5]  00 00 00 00 3E
  can1  64B   [2]  00 26
  can1  5CB   [5]  00 00 00 15 3E
  can1  64B   [2]  00 24
  can1  5CB   [5]  00 00 BB 8C 3E
  can1  64B   [2]  00 9F
  can1  5CB   [5]  00 04 31 F3 3E
  can1  64B   [2]  01 00
  can1  5CB   [5]  00 00 00 00 3E
  can1  64B   [2]  00 9B
  can1  5CB   [5]  00 00 00 00 3E
  can1  64B   [4]  00 23 00 01
  can1  5CB   [5]  00 00 00 00 3E
  can1  64B   [2]  00 20
  can1  5CB   [5]  00 00 00 00 3E
  can1  64B   [2]  00 F9
  can1  5CB   [5]  00 00 00 00 3E
  can1  64B   [2]  00 4E
  can1  5CB   [5]  00 00 00 03 3E
  can1  64B   [2]  00 9C
  can1  5CB   [5]  00 01 D6 B9 3E
  can1  64B   [2]  00 F9
  can1  5CB   [5]  00 00 00 00 3E
  can1  64B   [4]  00 01 00 04
  can1  5CB   [5]  08 F6 F8 63 3E
  can1  64B   [2]  00 22
  can1  5CB   [5]  00 00 00 00 3E
  can1  64B   [4]  01 25 00 01
  can1  5CB   [5]  00 00 00 00 3E
  can1  64B   [2]  00 29
  can1  5CB   [5]  00 00 00 07 3E
  can1  64B   [4]  01 25 00 02
  can1  5CB   [5]  00 30 13 C0 3E
  can1  64B   [4]  00 EB 00 01
  can1  5CB   [5]  00 00 00 00 3E
  can1  64B   [4]  01 25 00 03
  can1  5CB   [5]  00 00 00 00 3E
  can1  64B   [4]  00 EB 00 02
  can1  5CB   [5]  00 00 00 00 3E
  can1  64B   [4]  01 25 00 04
  can1  5CB   [5]  00 00 00 00 3E
  can1  64B   [4]  01 25 00 05
  can1  5CB   [5]  00 00 00 00 3E
  can1  64B   [4]  01 25 00 06
  can1  5CB   [5]  00 00 00 00 3E
  can1  64B   [4]  01 25 00 06
  can1  5CB   [5]  00 00 00 00 3E
  can1  64B   [4]  01 25 00 07
  can1  5CB   [5]  00 00 00 00 3E
  can1  64B   [2]  00 22
  can1  5CB   [5]  00 00 00 00 3E
  can1  64B   [2]  01 0C
  can1  5CB   [5]  00 00 00 00 3E
  can1  64B   [2]  00 4E
  can1  5CB   [5]  00 00 00 03 3E
  can1  64B   [2]  00 88
  can1  5CB   [5]  00 00 D9 6C 3E
  can1  64B   [4]  02 01 00 06
  can1  5CB   [5]  00 00 00 04 3E
  can1  64B   [4]  02 01 00 07
  can1  5CB   [5]  00 00 00 01 3E
  can1  64B   [2]  00 F9
  can1  5CB   [5]  00 00 00 00 3E
  can1  64B   [2]  00 89
  can1  5CB   [5]  00 00 D9 6C 3E
  can1  64B   [2]  01 19
  can1  5CB   [5]  00 00 01 8C 3E
  can1  64B   [4]  00 48 00 04
  can1  5CB   [5]  00 00 64 0B 3E
  can1  64B   [2]  00 22
  can1  5CB   [5]  00 00 00 00 3E
  can1  64B   [2]  00 8A
  can1  5CB   [5]  FF FF 26 94 3E
  can1  64B   [2]  01 13
  can1  5CB   [5]  00 00 00 01 3E
  can1  64B   [2]  00 AA
  can1  5CB   [5]  FF FB CE 0D 3E
  can1  64B   [2]  00 29
  can1  5CB   [5]  00 00 00 08 3E
  can1  64B   [2]  00 93
  can1  5CB   [5]  00 00 01 F4 3E
  can1  64B   [2]  00 21
  can1  5CB   [5]  00 00 00 21 3E
  can1  64B   [4]  01 F2 00 11
  can1  5CB   [5]  00 00 00 00 3E
  can1  64B   [4]  00 EB 00 01
  can1  5CB   [5]  00 00 00 00 3E
  can1  64B   [2]  00 8B
  can1  5CB   [5]  00 00 00 00 3E
  can1  64B   [4]  01 F2 00 14
  can1  5CB   [5]  00 00 00 00 3E
  can1  64B   [4]  01 F2 00 16
  can1  5CB   [5]  00 00 00 00 3E
  can1  64B   [4]  00 EB 00 02
  can1  5CB   [5]  00 00 00 00 3E
  can1  64B   [2]  00 9E
  can1  5CB   [5]  00 00 00 00 3E
  can1  64B   [4]  01 F2 00 03
  can1  5CB   [5]  00 00 00 00 3E
  can1  64B   [4]  01 F2 00 04
  can1  5CB   [5]  00 00 00 00 3E
  can1  64B   [2]  00 1F
  can1  5CB   [5]  00 00 0C 26 3E
  can1  64B   [2]  00 02
  can1  5CB   [5]  00 00 00 00 3E
  can1  64B   [4]  00 05 00 03
  can1  5CB   [5]  00 00 00 00 3E
  can1  64B   [2]  00 4E
  can1  5CB   [5]  00 00 00 03 3E
  can1  64B   [2]  00 04
  can1  5CB   [5]  00 00 00 00 3E
  can1  64B   [2]  00 F9
  can1  5CB   [5]  00 00 00 00 3E
  can1  64B   [2]  00 08
  can1  5CB   [5]  00 00 00 25 3E
  can1  64B   [2]  00 22
  can1  5CB   [5]  00 00 00 00 3E
  can1  64B   [2]  00 26
  can1  5CB   [5]  00 00 00 15 3E
  can1  64B   [2]  00 29
  can1  5CB   [5]  00 00 00 09 3E
  can1  64B   [2]  00 24
  can1  5CB   [5]  00 00 BB 8C 3E
  can1  64B   [4]  00 EB 00 01
  can1  5CB   [5]  00 00 00 00 3E
  can1  64B   [2]  00 9F
  can1  5CB   [5]  00 04 31 F3 3E
  can1  64B   [4]  00 EB 00 02
  can1  5CB   [5]  00 00 00 00 3E
  can1  64B   [2]  01 00
  can1  5CB   [5]  00 00 00 00 3E
  can1  64B   [2]  00 9B
  can1  5CB   [5]  00 00 00 00 3E
  can1  64B   [4]  00 23 00 01
  can1  5CB   [5]  00 00 00 00 3E
  can1  64B   [2]  00 20
  can1  5CB   [5]  00 00 00 00 3E
  can1  64B   [2]  00 F9
  can1  5CB   [5]  00 00 00 00 3E
  can1  64B   [2]  00 9C
  can1  5CB   [5]  00 01 D6 B9 3E
  can1  64B   [4]  00 01 00 04
  can1  5CB   [5]  08 F6 F8 63 3E
  can1  64B   [4]  01 25 00 01
  can1  5CB   [5]  00 00 00 00 3E
  can1  64B   [4]  01 25 00 02
  can1  5CB   [5]  00 30 13 C0 3E
  can1  64B   [4]  01 25 00 03
  can1  5CB   [5]  00 00 00 00 3E
  can1  64B   [4]  01 25 00 04
  can1  5CB   [5]  00 00 00 00 3E
  can1  64B   [4]  01 25 00 05
  can1  5CB   [5]  00 00 00 00 3E
  can1  64B   [4]  01 25 00 06
  can1  5CB   [5]  00 00 00 00 3E
  can1  64B   [4]  01 25 00 07
  can1  5CB   [5]  00 00 00 00 3E
  can1  64B   [2]  00 22
  can1  5CB   [5]  00 00 00 00 3E
  can1  64B   [2]  01 0C
  can1  5CB   [5]  00 00 00 00 3E
  can1  64B   [4]  02 01 00 06
  can1  5CB   [5]  00 00 00 04 3E
  can1  64B   [4]  02 01 00 07
  can1  5CB   [5]  00 00 00 01 3E
  can1  64B   [2]  01 19
  can1  5CB   [5]  00 00 01 8C 3E
  can1  64B   [2]  00 4E
  can1  5CB   [5]  00 00 00 03 3E
  can1  64B   [4]  00 48 00 04
  can1  5CB   [5]  00 00 64 0B 3E
  can1  64B   [2]  00 F9
  can1  5CB   [5]  00 00 00 00 3E
  can1  64B   [2]  01 13
  can1  5CB   [5]  00 00 00 01 3E
  can1  64B   [2]  00 22
  can1  5CB   [5]  00 00 00 00 3E
  can1  64B   [2]  00 AA
  can1  5CB   [5]  FF FB CE 0D 3E
  can1  64B   [2]  00 29
  can1  5CB   [5]  00 00 00 09 3E
  can1  64B   [2]  00 21
  can1  5CB   [5]  00 00 00 21 3E
  can1  64B   [4]  00 EB 00 01
  can1  5CB   [5]  00 00 00 00 3E
  can1  64B   [4]  01 F2 00 11
  can1  5CB   [5]  00 00 00 00 3E
  can1  64B   [4]  00 EB 00 02
  can1  5CB   [5]  00 00 00 00 3E
  can1  64B   [4]  01 F2 00 14
  can1  5CB   [5]  00 00 00 00 3E
  can1  64B   [4]  01 F2 00 16
  can1  5CB   [5]  00 00 00 00 3E
  can1  64B   [4]  01 F2 00 03
  can1  5CB   [5]  00 00 00 00 3E
  can1  64B   [4]  01 F2 00 04
  can1  5CB   [5]  00 00 00 00 3E
  can1  64B   [2]  00 4E
  can1  5CB   [5]  00 00 00 03 3E
  can1  64B   [2]  00 F9
  can1  5CB   [5]  00 00 00 00 3E
  can1  64B   [2]  00 22
  can1  5CB   [5]  00 00 00 00 3E
  can1  64B   [2]  00 29
  can1  5CB   [5]  00 00 00 0A 3E
  can1  64B   [4]  00 EB 00 01
  can1  5CB   [5]  00 00 00 00 3E
  can1  64B   [4]  00 EB 00 02
  can1  5CB   [5]  00 00 00 00 3E
  can1  64B   [2]  00 1F
  can1  5CB   [5]  00 00 0C 26 3E
  can1  64B   [2]  00 02
  can1  5CB   [5]  FF FF FF FF 3E
  can1  64B   [4]  00 05 00 03
  can1  5CB   [5]  00 00 00 00 3E
  can1  64B   [2]  00 04
  can1  5CB   [5]  00 00 00 00 3E
  can1  64B   [2]  00 08
  can1  5CB   [5]  00 00 00 1D 3E
  can1  64B   [2]  00 26
  can1  5CB   [5]  00 00 00 15 3E
  can1  64B   [2]  00 24
  can1  5CB   [5]  00 00 BB 8D 3E
  can1  64B   [2]  00 9F
  can1  5CB   [5]  00 04 31 F3 3E
  can1  64B   [2]  01 00
  can1  5CB   [5]  00 00 00 00 3E
  can1  64B   [2]  00 9B
  can1  5CB   [5]  00 00 00 00 3E
  can1  64B   [4]  00 23 00 01
  can1  5CB   [5]  00 00 00 00 3E
  can1  64B   [2]  00 20
  can1  5CB   [5]  00 00 00 00 3E
  can1  64B   [2]  00 F9
  can1  5CB   [5]  00 00 00 00 3E
  can1  64B   [2]  00 9C
  can1  5CB   [5]  00 01 D6 B9 3E
  can1  64B   [4]  00 01 00 04
  can1  5CB   [5]  08 F6 F8 63 3E
  can1  64B   [4]  01 25 00 01
  can1  5CB   [5]  00 00 00 00 3E
  can1  64B   [4]  01 25 00 02
  can1  5CB   [5]  00 30 13 C0 3E
  can1  64B   [4]  01 25 00 03
  can1  5CB   [5]  00 00 00 00 3E
  can1  64B   [4]  01 25 00 04
  can1  5CB   [5]  00 00 00 00 3E
  can1  64B   [4]  01 25 00 05
  can1  5CB   [5]  00 00 00 00 3E
  can1  64B   [4]  01 25 00 06
  can1  5CB   [5]  00 00 00 00 3E
  can1  64B   [4]  01 25 00 07
  can1  5CB   [5]  00 00 00 00 3E
  can1  64B   [2]  00 22
  can1  5CB   [5]  00 00 00 00 3E
  can1  64B   [2]  01 0C
  can1  5CB   [5]  00 00 00 00 3E
  can1  64B   [4]  02 01 00 06
  can1  5CB   [5]  00 00 00 04 3E
  can1  64B   [4]  02 01 00 07
  can1  5CB   [5]  00 00 00 01 3E
  can1  64B   [2]  01 19
  can1  5CB   [5]  00 00 01 72 3E
  can1  64B   [4]  00 48 00 04
  can1  5CB   [5]  00 00 64 0B 3E
  can1  64B   [2]  01 13
  can1  5CB   [5]  00 00 00 01 3E
  can1  64B   [2]  00 AA
  can1  5CB   [5]  FF FB CE 0D 3E
  can1  64B   [2]  00 21
  can1  5CB   [5]  00 00 00 21 3E
  can1  64B   [4]  01 F2 00 11
  can1  5CB   [5]  00 00 00 00 3E
  can1  64B   [4]  01 F2 00 14
  can1  5CB   [5]  00 00 00 00 3E
  can1  64B   [4]  01 F2 00 16
  can1  5CB   [5]  00 00 00 00 3E
  can1  64B   [4]  01 F2 00 03
  can1  5CB   [5]  00 00 00 00 3E
  can1  64B   [4]  01 F2 00 04
  can1  5CB   [5]  00 00 00 00 3E
  can1  64B   [2]  00 4E
  can1  5CB   [5]  00 00 00 03 3E
  can1  64B   [2]  00 F9
  can1  5CB   [5]  00 00 00 00 3E
  can1  64B   [2]  00 22
  can1  5CB   [5]  00 00 00 00 3E
  can1  64B   [2]  00 29
  can1  5CB   [5]  00 00 00 0A 3E
  can1  64B   [4]  00 EB 00 01
  can1  5CB   [5]  00 00 00 00 3E
  can1  64B   [4]  00 EB 00 02
  can1  5CB   [5]  00 00 00 00 3E
  can1  64B   [2]  00 4E
  can1  5CB   [5]  00 00 00 03 3E
  can1  64B   [2]  00 F9
  can1  5CB   [5]  00 00 00 00 3E
  can1  64B   [2]  00 22
  can1  5CB   [5]  00 00 00 00 3E
  can1  64B   [2]  00 29
  can1  5CB   [5]  00 00 00 0A 3E
  can1  64B   [4]  00 EB 00 01
  can1  5CB   [5]  00 00 00 00 3E
  can1  64B   [4]  00 EB 00 02
  can1  5CB   [5]  00 00 00 00 3E
  can1  64B   [2]  00 4E
  can1  5CB   [5]  00 00 00 03 3E
  can1  64B   [2]  00 F9
  can1  5CB   [5]  00 00 00 00 3E
  can1  64B   [2]  00 22
  can1  5CB   [5]  00 00 00 00 3E
  can1  64B   [2]  00 29
  can1  5CB   [5]  00 00 00 0A 3E
  can1  64B   [4]  00 EB 00 01
  can1  5CB   [5]  00 00 00 00 3E
  can1  64B   [4]  00 EB 00 02
  can1  5CB   [5]  00 00 00 00 3E
  can1  64B   [2]  00 1F
  can1  5CB   [5]  00 00 0C 26 3E
  can1  64B   [2]  00 02
  can1  5CB   [5]  00 00 00 00 3E
  can1  64B   [4]  00 05 00 03
  can1  5CB   [5]  00 00 00 00 3E
  can1  64B   [2]  00 04
  can1  5CB   [5]  00 00 00 00 3E
  can1  64B   [2]  00 08
  can1  5CB   [5]  00 00 00 10 3E
  can1  64B   [2]  00 26
  can1  5CB   [5]  00 00 00 15 3E
  can1  64B   [2]  00 24
  can1  5CB   [5]  00 00 BB 8A 3E
  can1  64B   [2]  00 9F
  can1  5CB   [5]  00 04 31 F4 3E
  can1  64B   [2]  01 00
  can1  5CB   [5]  00 00 00 00 3E
  can1  64B   [2]  00 9B
  can1  5CB   [5]  00 00 00 00 3E
  can1  64B   [4]  00 23 00 01
  can1  5CB   [5]  00 00 00 00 3E
  can1  64B   [2]  00 20
  can1  5CB   [5]  00 00 00 00 3E
  can1  64B   [2]  00 F9
  can1  5CB   [5]  00 00 00 00 3E
  can1  64B   [2]  00 9C
  can1  5CB   [5]  00 01 D6 B9 3E
  can1  64B   [4]  00 01 00 04
  can1  5CB   [5]  08 F6 F8 63 3E
  can1  64B   [4]  01 25 00 01
  can1  5CB   [5]  00 00 00 00 3E
  can1  64B   [4]  01 25 00 02
  can1  5CB   [5]  00 30 13 C0 3E
  can1  64B   [4]  01 25 00 03
  can1  5CB   [5]  00 00 00 00 3E
  can1  64B   [4]  01 25 00 04
  can1  5CB   [5]  00 00 00 00 3E
  can1  64B   [4]  01 25 00 05
  can1  5CB   [5]  00 00 00 00 3E
  can1  64B   [4]  01 25 00 06
  can1  5CB   [5]  00 00 00 00 3E
  can1  64B   [4]  01 25 00 07
  can1  5CB   [5]  00 00 00 00 3E
  can1  64B   [2]  00 22
  can1  5CB   [5]  00 00 00 00 3E
  can1  64B   [2]  01 0C
  can1  5CB   [5]  00 00 00 00 3E
  can1  64B   [4]  02 01 00 06
  can1  5CB   [5]  00 00 00 04 3E
  can1  64B   [2]  00 4E
  can1  5CB   [5]  00 00 00 03 3E
  can1  64B   [4]  02 01 00 07
  can1  5CB   [5]  00 00 00 01 3E
  can1  64B   [2]  00 F9
  can1  5CB   [5]  00 00 00 00 3E
  can1  64B   [2]  01 19
  can1  5CB   [5]  00 00 01 72 3E
  can1  64B   [2]  00 22
  can1  5CB   [5]  00 00 00 00 3E
  can1  64B   [4]  00 48 00 04
  can1  5CB   [5]  00 00 64 0B 3E
  can1  64B   [2]  00 29
  can1  5CB   [5]  00 00 00 0B 3E
  can1  64B   [2]  01 13
  can1  5CB   [5]  00 00 00 01 3E
  can1  64B   [4]  00 EB 00 01
  can1  5CB   [5]  00 00 00 00 3E
  can1  64B   [2]  00 AA
  can1  5CB   [5]  FF FB CE 0D 3E
  can1  64B   [4]  00 EB 00 02
  can1  5CB   [5]  00 00 00 00 3E
  can1  64B   [2]  00 21
  can1  5CB   [5]  00 00 00 21 3E
  can1  64B   [4]  01 F2 00 11
  can1  5CB   [5]  00 00 00 00 3E
  can1  64B   [4]  01 F2 00 14
  can1  5CB   [5]  00 00 00 00 3E
  can1  64B   [4]  01 F2 00 16
  can1  5CB   [5]  00 00 00 00 3E
  can1  64B   [4]  01 F2 00 03
  can1  5CB   [5]  00 00 00 00 3E
  can1  64B   [4]  01 F2 00 04
  can1  5CB   [5]  00 00 00 00 3E
  can1  64B   [2]  00 4E
  can1  5CB   [5]  00 00 00 03 3E
  can1  64B   [2]  00 F9
  can1  5CB   [5]  00 00 00 00 3E
  can1  64B   [2]  00 22
  can1  5CB   [5]  00 00 00 00 3E
  can1  64B   [2]  00 29
  can1  5CB   [5]  00 00 00 0B 3E
  can1  64B   [4]  00 EB 00 01
  can1  5CB   [5]  00 00 00 00 3E
  can1  64B   [4]  00 EB 00 02
  can1  5CB   [5]  00 00 00 00 3E
  can1  64B   [2]  00 4E
  can1  5CB   [5]  00 00 00 03 3E
  can1  64B   [2]  00 F9
  can1  5CB   [5]  00 00 00 00 3E
  can1  64B   [2]  00 22
  can1  5CB   [5]  00 00 00 00 3E
  can1  64B   [2]  00 29
  can1  5CB   [5]  00 00 00 0B 3E
  can1  64B   [4]  00 EB 00 01
  can1  5CB   [5]  00 00 00 00 3E
  can1  64B   [4]  00 EB 00 02
  can1  5CB   [5]  00 00 00 00 3E
  can1  64B   [2]  00 4E
  can1  5CB   [5]  00 00 00 03 3E
  can1  64B   [2]  00 F9
  can1  5CB   [5]  00 00 00 00 3E
  can1  64B   [2]  00 22
  can1  5CB   [5]  00 00 00 00 3E
  can1  64B   [2]  00 29
  can1  5CB   [5]  00 00 00 0C 3E
  can1  64B   [2]  00 1F
  can1  5CB   [5]  00 00 0C 26 3E
  can1  64B   [4]  00 EB 00 01
  can1  5CB   [5]  00 00 00 00 3E
  can1  64B   [2]  00 02
  can1  5CB   [5]  FF FF FF FF 3E
  can1  64B   [4]  00 EB 00 02
  can1  5CB   [5]  00 00 00 00 3E
  can1  64B   [4]  00 05 00 03
  can1  5CB   [5]  00 00 00 00 3E
  can1  64B   [2]  00 04
  can1  5CB   [5]  00 00 00 00 3E
  can1  64B   [2]  00 08
  can1  5CB   [5]  FF FF FF EF 3E
  can1  64B   [2]  00 26
  can1  5CB   [5]  00 00 00 15 3E
  can1  64B   [2]  00 24
  can1  5CB   [5]  00 00 BB 8B 3E
  can1  64B   [2]  00 9F
  can1  5CB   [5]  00 04 31 F3 3E
  can1  64B   [2]  01 00
  can1  5CB   [5]  00 00 00 00 3E
  can1  64B   [2]  00 9B
  can1  5CB   [5]  00 00 00 00 3E
  can1  64B   [4]  00 23 00 01
  can1  5CB   [5]  00 00 00 00 3E
  can1  64B   [2]  00 20
  can1  5CB   [5]  00 00 00 00 3E
  can1  64B   [2]  00 F9
  can1  5CB   [5]  00 00 00 00 3E
  can1  64B   [2]  00 9C
  can1  5CB   [5]  00 01 D6 B9 3E
  can1  64B   [4]  00 01 00 04
  can1  5CB   [5]  08 F6 F8 63 3E
  can1  64B   [4]  01 25 00 01
  can1  5CB   [5]  00 00 00 00 3E
  can1  64B   [4]  01 25 00 02
  can1  5CB   [5]  00 30 13 C0 3E
  can1  64B   [4]  01 25 00 03
  can1  5CB   [5]  00 00 00 00 3E
  can1  64B   [4]  01 25 00 04
  can1  5CB   [5]  00 00 00 00 3E
  can1  64B   [4]  01 25 00 05
  can1  5CB   [5]  00 00 00 00 3E
  can1  64B   [4]  01 25 00 06
  can1  5CB   [5]  00 00 00 00 3E
  can1  64B   [4]  01 25 00 07
  can1  5CB   [5]  00 00 00 00 3E
  can1  64B   [2]  00 22
  can1  5CB   [5]  00 00 00 00 3E
  can1  64B   [2]  01 0C
  can1  5CB   [5]  00 00 00 00 3E
  can1  64B   [4]  02 01 00 06
  can1  5CB   [5]  00 00 00 04 3E
  can1  64B   [4]  02 01 00 07
  can1  5CB   [5]  00 00 00 01 3E
  can1  64B   [2]  01 19
  can1  5CB   [5]  00 00 01 8C 3E
  can1  64B   [4]  00 48 00 04
  can1  5CB   [5]  00 00 64 0B 3E
  can1  64B   [2]  01 13
  can1  5CB   [5]  00 00 00 01 3E
  can1  64B   [2]  00 AA
  can1  5CB   [5]  FF FB CE 0D 3E
  can1  64B   [2]  00 21
  can1  5CB   [5]  00 00 00 21 3E
  can1  64B   [4]  01 F2 00 11
  can1  5CB   [5]  00 00 00 00 3E
  can1  64B   [4]  01 F2 00 14
  can1  5CB   [5]  00 00 00 00 3E
  can1  64B   [4]  01 F2 00 16
  can1  5CB   [5]  00 00 00 00 3E
  can1  64B   [4]  01 F2 00 03
  can1  5CB   [5]  00 00 00 00 3E
  can1  64B   [4]  01 F2 00 04
  can1  5CB   [5]  00 00 00 00 3E
  can1  64B   [2]  00 4E
  can1  5CB   [5]  00 00 00 03 3E
  can1  64B   [2]  00 F9
  can1  5CB   [5]  00 00 00 00 3E
  can1  64B   [2]  00 22
  can1  5CB   [5]  00 00 00 00 3E
  can1  64B   [2]  00 29
  can1  5CB   [5]  00 00 00 0C 3E
  can1  64B   [4]  00 EB 00 01
  can1  5CB   [5]  00 00 00 00 3E
  can1  64B   [4]  00 EB 00 02
  can1  5CB   [5]  00 00 00 00 3E
  can1  64B   [2]  00 4E
  can1  5CB   [5]  00 00 00 03 3E
  can1  64B   [2]  00 F9
  can1  5CB   [5]  00 00 00 00 3E
  can1  64B   [2]  00 22
  can1  5CB   [5]  00 00 00 00 3E
  can1  64B   [2]  00 29
  can1  5CB   [5]  00 00 00 0C 3E
  can1  64B   [4]  00 EB 00 01
  can1  5CB   [5]  00 00 00 00 3E
  can1  64B   [4]  00 EB 00 02
  can1  5CB   [5]  00 00 00 00 3E
  can1  64B   [6]  00 87 FF FF FC 18
  can1  5CB   [1]  3E
  can1  64B   [6]  00 88 00 00 D9 6C
  can1  5CB   [1]  3E
  can1  64B   [6]  00 8D 00 00 00 01
  can1  5CB   [1]  3E
  can1  64B   [6]  01 00 00 00 00 01
  can1  5CB   [1]  3E
  can1  64B   [6]  00 89 00 00 D9 6C
  can1  5CB   [1]  3E
  can1  64B   [2]  00 4E
  can1  5CB   [5]  00 00 00 03 3E
  can1  64B   [6]  00 8A FF FF 26 94
  can1  5CB   [1]  3E
  can1  64B   [2]  00 F9
  can1  5CB   [5]  00 00 00 00 3E
  can1  64B   [6]  00 93 00 00 01 F4
  can1  5CB   [1]  3E
  can1  64B   [2]  00 1F
  can1  5CB   [5]  00 00 00 00 3E
  can1  64B   [2]  00 22
  can1  5CB   [5]  00 00 00 00 3E
  can1  64B   [2]  00 02
  can1  5CB   [5]  00 00 00 00 3E
  can1  64B   [2]  00 29
  can1  5CB   [5]  00 00 00 0D 3E
  can1  64B   [4]  00 05 00 03
  can1  5CB   [5]  00 00 00 00 3E
  can1  64B   [4]  00 EB 00 01
  can1  5CB   [5]  00 00 00 00 3E
  can1  64B   [2]  00 04
  can1  5CB   [5]  00 00 00 00 3E
  can1  64B   [4]  00 EB 00 02
  can1  5CB   [5]  00 00 00 00 3E
  can1  64B   [2]  00 08
  can1  5CB   [5]  00 00 00 15 3E
  can1  64B   [2]  00 26
  can1  5CB   [5]  00 00 00 15 3E
  can1  64B   [2]  00 24
  can1  5CB   [5]  00 00 B9 73 3E
  can1  64B   [2]  00 9F
  can1  5CB   [5]  00 04 31 F3 3E
  can1  64B   [2]  01 00
  can1  5CB   [5]  00 00 00 01 3E
  can1  64B   [2]  00 9B
  can1  5CB   [5]  00 00 00 00 3E
  can1  64B   [4]  00 23 00 01
  can1  5CB   [5]  00 00 00 00 3E
  can1  64B   [2]  00 20
  can1  5CB   [5]  00 00 00 00 3E
  can1  64B   [2]  00 F9
  can1  5CB   [5]  00 00 00 00 3E
  can1  64B   [2]  00 4E
  can1  5CB   [5]  00 00 00 03 3E
  can1  64B   [2]  00 9C
  can1  5CB   [5]  00 01 D6 AE 3E
  can1  64B   [2]  00 F9
  can1  5CB   [5]  00 00 00 00 3E
  can1  64B   [4]  00 01 00 04
  can1  5CB   [5]  08 F6 F8 63 3E
  can1  64B   [2]  00 22
  can1  5CB   [5]  00 00 00 00 3E
  can1  64B   [4]  01 25 00 01
  can1  5CB   [5]  00 00 00 00 3E
  can1  64B   [2]  00 29
  can1  5CB   [5]  00 00 00 0D 3E
  can1  64B   [4]  01 25 00 02
  can1  5CB   [5]  00 30 13 C0 3E
  can1  64B   [4]  00 EB 00 01
  can1  5CB   [5]  00 00 00 00 3E
  can1  64B   [4]  01 25 00 03
  can1  5CB   [5]  00 00 00 00 3E
  can1  64B   [4]  00 EB 00 02
  can1  5CB   [5]  00 00 00 00 3E
  can1  64B   [4]  01 25 00 04
  can1  5CB   [5]  00 00 00 00 3E
  can1  64B   [4]  01 25 00 05
  can1  5CB   [5]  00 00 00 00 3E
  can1  64B   [2]  00 83
  can1  5CB   [1]  3E
  can1  64B   [4]  01 25 00 06
  can1  5CB   [5]  00 00 00 00 3E
  can1  64B   [4]  01 25 00 06
  can1  5CB   [5]  00 00 00 00 3E
  can1  64B   [4]  01 25 00 07
  can1  5CB   [5]  00 00 00 00 3E
  can1  64B   [2]  00 22
  can1  5CB   [5]  00 00 00 00 3E
  can1  64B   [2]  01 0C
  can1  5CB   [5]  00 00 00 02 3E
  can1  64B   [4]  02 01 00 06
  can1  5CB   [5]  00 00 00 04 3E
  can1  64B   [4]  02 01 00 07
  can1  5CB   [5]  00 00 00 01 3E
  can1  64B   [2]  00 4E
  can1  5CB   [5]  00 00 00 03 3E
  can1  64B   [2]  01 19
  can1  5CB   [5]  00 00 00 C3 3E
  can1  64B   [4]  00 48 00 04
  can1  5CB   [5]  00 00 64 0B 3E
  can1  64B   [2]  00 F9
  can1  5CB   [5]  00 00 00 00 3E
  can1  64B   [2]  01 13
  can1  5CB   [5]  00 00 00 01 3E
  can1  64B   [2]  00 AA
  can1  5CB   [5]  FF FB CE 0D 3E
  can1  64B   [2]  00 22
  can1  5CB   [5]  00 00 00 00 3E
  can1  64B   [2]  00 21
  can1  5CB   [5]  00 00 00 21 3E
  can1  64B   [4]  01 F2 00 11
  can1  5CB   [5]  00 00 00 00 3E
  can1  64B   [2]  00 29
  can1  5CB   [5]  00 00 00 0E 3E
  can1  64B   [4]  01 F2 00 14
  can1  5CB   [5]  00 00 00 00 3E
  can1  64B   [4]  01 F2 00 16
  can1  5CB   [5]  00 00 00 00 3E
  can1  64B   [4]  00 EB 00 01
  can1  5CB   [5]  00 00 00 00 3E
  can1  64B   [4]  01 F2 00 03
  can1  5CB   [5]  00 00 00 00 3E
  can1  64B   [4]  01 F2 00 04
  can1  5CB   [5]  00 00 00 00 3E
  can1  64B   [4]  00 EB 00 02
  can1  5CB   [5]  00 00 00 00 3E
  can1  64B   [2]  00 4E
  can1  5CB   [5]  00 00 00 03 3E
  can1  64B   [2]  00 F9
  can1  5CB   [5]  00 00 00 00 3E
  can1  64B   [2]  00 1F
  can1  5CB   [5]  00 00 00 00 3E
  can1  64B   [2]  00 22
  can1  5CB   [5]  00 00 00 00 3E
  can1  64B   [2]  00 02
  can1  5CB   [5]  FF FF FC 13 3E
  can1  64B   [2]  00 29
  can1  5CB   [5]  00 00 00 0F 3E
  can1  64B   [4]  00 05 00 03
  can1  5CB   [5]  00 00 00 00 3E
  can1  64B   [4]  00 EB 00 01
  can1  5CB   [5]  00 00 00 00 3E
  can1  64B   [2]  00 04
  can1  5CB   [5]  00 00 00 00 3E
  can1  64B   [4]  00 EB 00 02
  can1  5CB   [5]  00 00 00 00 3E
  can1  64B   [2]  00 08
  can1  5CB   [5]  FF FF FD D0 3E
  can1  64B   [2]  00 26
  can1  5CB   [5]  00 00 00 15 3E
  can1  64B   [2]  00 24
  can1  5CB   [5]  00 00 BB 10 3E
  can1  64B   [2]  00 9F
  can1  5CB   [5]  00 04 2E 06 3E
  can1  64B   [2]  01 00
  can1  5CB   [5]  00 00 00 01 3E
  can1  64B   [2]  00 9B
  can1  5CB   [5]  00 00 00 00 3E
  can1  64B   [4]  00 23 00 01
  can1  5CB   [5]  00 00 00 00 3E
  can1  64B   [2]  00 20
  can1  5CB   [5]  00 00 00 00 3E
  can1  64B   [2]  00 4E
  can1  5CB   [5]  00 00 00 03 3E
  can1  64B   [2]  00 F9
  can1  5CB   [5]  00 00 00 00 3E
  can1  64B   [2]  00 F9
  can1  5CB   [5]  00 00 00 00 3E
  can1  64B   [2]  00 9C
  can1  5CB   [5]  00 01 72 DF 3E
  can1  64B   [2]  00 22
  can1  5CB   [5]  00 00 00 00 3E
  can1  64B   [4]  00 01 00 04
  can1  5CB   [5]  08 F6 F8 63 3E
  can1  64B   [2]  00 29
  can1  5CB   [5]  00 00 00 0F 3E
  can1  64B   [4]  01 25 00 01
  can1  5CB   [5]  00 00 00 00 3E
  can1  64B   [4]  00 EB 00 01
  can1  5CB   [5]  00 00 00 00 3E
  can1  64B   [4]  01 25 00 02
  can1  5CB   [5]  00 30 13 C0 3E
  can1  64B   [4]  00 EB 00 02
  can1  5CB   [5]  00 00 00 00 3E
  can1  64B   [4]  01 25 00 03
  can1  5CB   [5]  00 00 00 00 3E
  can1  64B   [4]  01 25 00 04
  can1  5CB   [5]  00 00 00 00 3E
  can1  64B   [4]  01 25 00 05
  can1  5CB   [5]  00 00 00 00 3E
  can1  64B   [6]  00 87 00 00 03 E8
  can1  5CB   [1]  3E
  can1  64B   [6]  00 88 00 00 D9 6C
  can1  5CB   [1]  3E
  can1  64B   [6]  00 8D 00 00 00 01
  can1  5CB   [1]  3E
  can1  64B   [6]  01 00 00 00 00 01
  can1  5CB   [1]  3E
  can1  64B   [4]  01 25 00 06
  can1  5CB   [5]  00 00 00 00 3E
  can1  64B   [4]  01 25 00 06
  can1  5CB   [5]  00 00 00 00 3E
  can1  64B   [6]  00 89 00 00 D9 6C
  can1  5CB   [1]  3E
  can1  64B   [2]  00 4E
  can1  5CB   [5]  00 00 00 03 3E
  can1  64B   [4]  01 25 00 07
  can1  5CB   [5]  00 00 00 00 3E
  can1  64B   [2]  00 22
  can1  5CB   [5]  00 00 00 00 3E
  can1  64B   [6]  00 8A FF FF 26 94
  can1  5CB   [1]  3E
  can1  64B   [2]  00 F9
  can1  5CB   [5]  00 00 00 00 3E
  can1  64B   [2]  01 0C
  can1  5CB   [5]  00 00 00 04 3E
  can1  64B   [4]  02 01 00 06
  can1  5CB   [5]  00 00 00 04 3E
  can1  64B   [6]  00 93 00 00 01 F4
  can1  5CB   [1]  3E
  can1  64B   [2]  00 22
  can1  5CB   [5]  00 00 00 00 3E
  can1  64B   [4]  02 01 00 07
  can1  5CB   [5]  00 00 00 01 3E
  can1  64B   [2]  01 19
  can1  5CB   [5]  00 00 00 D8 3E
  can1  64B   [2]  00 29
  can1  5CB   [5]  00 00 00 10 3E
  can1  64B   [4]  00 48 00 04
  can1  5CB   [5]  00 00 64 0B 3E
  can1  64B   [2]  01 13
  can1  5CB   [5]  00 00 00 01 3E
  can1  64B   [4]  00 EB 00 01
  can1  5CB   [5]  00 00 00 00 3E
  can1  64B   [2]  00 AA
  can1  5CB   [5]  FF FB CE 0D 3E
  can1  64B   [2]  00 21
  can1  5CB   [5]  00 00 00 21 3E
  can1  64B   [4]  00 EB 00 02
  can1  5CB   [5]  00 00 00 00 3E
  can1  64B   [4]  01 F2 00 11
  can1  5CB   [5]  00 00 00 00 3E
  can1  64B   [4]  01 F2 00 14
  can1  5CB   [5]  00 00 00 00 3E
  can1  64B   [4]  01 F2 00 16
  can1  5CB   [5]  00 00 00 00 3E
  can1  64B   [4]  01 F2 00 03
  can1  5CB   [5]  00 00 00 00 3E
  can1  64B   [4]  01 F2 00 04
  can1  5CB   [5]  00 00 00 00 3E
  can1  64B   [2]  00 4E
  can1  5CB   [5]  00 00 00 03 3E
  can1  64B   [2]  00 1F
  can1  5CB   [5]  00 00 00 00 3E
  can1  64B   [2]  00 F9
  can1  5CB   [5]  00 00 00 00 3E
  can1  64B   [2]  00 02
  can1  5CB   [5]  FF FF FC 15 3E
  can1  64B   [2]  00 83
  can1  5CB   [1]  3E
  can1  64B   [2]  00 22
  can1  5CB   [5]  00 00 00 00 3E
  can1  64B   [4]  00 05 00 03
  can1  5CB   [5]  00 00 0A D9 3E
  can1  64B   [2]  00 29
  can1  5CB   [5]  00 00 00 11 3E
  can1  64B   [2]  00 04
  can1  5CB   [5]  00 00 00 00 3E
  can1  64B   [4]  00 EB 00 01
  can1  5CB   [5]  00 00 00 00 3E
  can1  64B   [2]  00 08
  can1  5CB   [5]  00 00 06 B2 3E
  can1  64B   [4]  00 EB 00 02
  can1  5CB   [5]  00 00 00 00 3E
  can1  64B   [2]  00 26
  can1  5CB   [5]  00 00 00 15 3E
  can1  64B   [2]  00 24
  can1  5CB   [5]  00 00 BB 17 3E
  can1  64B   [2]  00 9F
  can1  5CB   [5]  00 04 31 F6 3E
  can1  64B   [2]  01 00
  can1  5CB   [5]  00 00 00 01 3E
  can1  64B   [2]  00 9B
  can1  5CB   [5]  00 00 00 00 3E
  can1  64B   [4]  00 23 00 01
  can1  5CB   [5]  00 00 00 00 3E
  can1  64B   [2]  00 20
  can1  5CB   [5]  00 00 00 00 3E
  can1  64B   [2]  00 F9
  can1  5CB   [5]  00 00 00 00 3E
  can1  64B   [2]  00 9C
  can1  5CB   [5]  00 01 D6 B5 3E
  can1  64B   [2]  00 4E
  can1  5CB   [5]  00 00 00 03 3E
  can1  64B   [4]  00 01 00 04
  can1  5CB   [5]  08 F6 F8 63 3E
  can1  64B   [2]  00 F9
  can1  5CB   [5]  00 00 00 00 3E
  can1  64B   [4]  01 25 00 01
  can1  5CB   [5]  00 00 00 00 3E
  can1  64B   [2]  00 22
  can1  5CB   [5]  00 00 00 00 3E
  can1  64B   [4]  01 25 00 02
  can1  5CB   [5]  00 30 13 C0 3E
  can1  64B   [2]  00 29
  can1  5CB   [5]  00 00 00 12 3E
  can1  64B   [4]  01 25 00 03
  can1  5CB   [5]  00 00 00 00 3E
  can1  64B   [4]  00 EB 00 01
  can1  5CB   [5]  00 00 00 00 3E
  can1  64B   [4]  01 25 00 04
  can1  5CB   [5]  00 00 00 00 3E
  can1  64B   [4]  00 EB 00 02
  can1  5CB   [5]  00 00 00 00 3E
  can1  64B   [4]  01 25 00 05
  can1  5CB   [5]  00 00 00 00 3E
  can1  64B   [4]  01 25 00 06
  can1  5CB   [5]  00 00 00 00 3E
  can1  64B   [4]  01 25 00 06
  can1  5CB   [5]  00 00 00 00 3E
  can1  64B   [4]  01 25 00 07
  can1  5CB   [5]  00 00 00 00 3E
  can1  64B   [2]  00 22
  can1  5CB   [5]  00 00 00 00 3E
  can1  64B   [2]  01 0C
  can1  5CB   [5]  00 00 00 04 3E
  can1  64B   [6]  01 00 00 00 00 00
  can1  5CB   [1]  3E
  can1  64B   [4]  02 01 00 06
  can1  5CB   [5]  00 00 00 04 3E
  can1  64B   [4]  02 01 00 07
  can1  5CB   [5]  00 00 00 01 3E
  can1  64B   [2]  00 4E
  can1  5CB   [5]  00 00 00 03 3E
  can1  64B   [2]  01 19
  can1  5CB   [5]  00 00 01 56 3E
  can1  64B   [4]  00 48 00 04
  can1  5CB   [5]  00 00 64 0B 3E
  can1  64B   [2]  00 F9
  can1  5CB   [5]  00 00 00 00 3E
  can1  64B   [2]  01 13
  can1  5CB   [5]  00 00 00 01 3E
  can1  64B   [2]  00 AA
  can1  5CB   [5]  FF FB CE 0D 3E
  can1  64B   [2]  00 22
  can1  5CB   [5]  00 00 00 00 3E
  can1  64B   [2]  00 21
  can1  5CB   [5]  00 00 00 21 3E
  can1  64B   [4]  01 F2 00 11
  can1  5CB   [5]  00 00 00 00 3E
  can1  64B   [2]  00 29
  can1  5CB   [5]  00 00 00 12 3E
  can1  64B   [4]  01 F2 00 14
  can1  5CB   [5]  00 00 00 00 3E
  can1  64B   [4]  01 F2 00 16
  can1  5CB   [5]  00 00 00 00 3E
  can1  64B   [4]  00 EB 00 01
  can1  5CB   [5]  00 00 00 00 3E
  can1  64B   [4]  01 F2 00 03
  can1  5CB   [5]  00 00 00 00 3E
  can1  64B   [4]  01 F2 00 04
  can1  5CB   [5]  00 00 00 00 3E
  can1  64B   [4]  00 EB 00 02
  can1  5CB   [5]  00 00 00 00 3E
  can1  64B   [2]  00 4E
  can1  5CB   [5]  00 00 00 03 3E
  can1  64B   [2]  00 1F
  can1  5CB   [5]  00 00 00 00 3E
  can1  64B   [2]  00 F9
  can1  5CB   [5]  00 00 00 00 3E
  can1  64B   [2]  00 02
  can1  5CB   [5]  00 00 00 02 3E
  can1  64B   [2]  00 22
  can1  5CB   [5]  00 00 00 00 3E
  can1  64B   [4]  00 05 00 03
  can1  5CB   [5]  00 00 00 00 3E
  can1  64B   [2]  00 29
  can1  5CB   [5]  00 00 00 13 3E
  can1  64B   [2]  00 04
  can1  5CB   [5]  00 00 00 00 3E
  can1  64B   [4]  00 EB 00 01
  can1  5CB   [5]  00 00 00 00 3E
  can1  64B   [2]  00 08
  can1  5CB   [5]  00 00 00 27 3E
  can1  64B   [4]  00 EB 00 02
  can1  5CB   [5]  00 00 00 00 3E
  can1  64B   [2]  00 26
  can1  5CB   [5]  00 00 00 15 3E
  can1  64B   [2]  00 24
  can1  5CB   [5]  00 00 BB 8B 3E
  can1  64B   [2]  00 9F
  can1  5CB   [5]  00 04 31 F3 3E
  can1  64B   [2]  01 00
  can1  5CB   [5]  00 00 00 00 3E
  can1  64B   [2]  00 9B
  can1  5CB   [5]  00 00 00 00 3E
  can1  64B   [4]  00 23 00 01
  can1  5CB   [5]  00 00 00 00 3E
  can1  64B   [2]  00 20
  can1  5CB   [5]  00 00 00 00 3E
  can1  64B   [2]  00 F9
  can1  5CB   [5]  00 00 00 00 3E
  can1  64B   [2]  00 4E
  can1  5CB   [5]  00 00 00 03 3E
  can1  64B   [2]  00 9C
  can1  5CB   [5]  00 01 D6 B6 3E
  can1  64B   [2]  00 F9
  can1  5CB   [5]  00 00 00 00 3E
  can1  64B   [4]  00 01 00 04
  can1  5CB   [5]  08 F6 F8 63 3E
  can1  64B   [2]  00 22
  can1  5CB   [5]  00 00 00 00 3E
  can1  64B   [4]  01 25 00 01
  can1  5CB   [5]  00 00 00 00 3E
  can1  64B   [2]  00 29
  can1  5CB   [5]  00 00 00 14 3E
  can1  64B   [4]  01 25 00 02
  can1  5CB   [5]  00 30 13 C0 3E
  can1  64B   [4]  00 EB 00 01
  can1  5CB   [5]  00 00 00 00 3E
  can1  64B   [4]  01 25 00 03
  can1  5CB   [5]  00 00 00 00 3E
  can1  64B   [4]  00 EB 00 02
  can1  5CB   [5]  00 00 00 00 3E
  can1  64B   [4]  01 25 00 04
  can1  5CB   [5]  00 00 00 00 3E
  can1  64B   [4]  01 25 00 05
  can1  5CB   [5]  00 00 00 00 3E
  can1  64B   [4]  01 25 00 06
  can1  5CB   [5]  00 00 00 00 3E
  can1  64B   [4]  01 25 00 07
  can1  5CB   [5]  00 00 00 00 3E
  can1  64B   [4]  01 25 00 07
  can1  5CB   [5]  00 00 00 00 3E
  can1  64B   [2]  00 22
  can1  5CB   [5]  00 00 00 00 3E
  can1  64B   [2]  01 0C
  can1  5CB   [5]  00 00 00 00 3E
  can1  64B   [4]  02 01 00 06
  can1  5CB   [5]  00 00 00 04 3E
  can1  64B   [4]  02 01 00 07
  can1  5CB   [5]  00 00 00 01 3E
  can1  64B   [2]  01 19
  can1  5CB   [5]  00 00 01 3D 3E
  can1  64B   [2]  00 4E
  can1  5CB   [5]  00 00 00 03 3E
  can1  64B   [4]  00 48 00 04
  can1  5CB   [5]  00 00 64 0B 3E
  can1  64B   [2]  01 13
  can1  5CB   [5]  00 00 00 01 3E
  can1  64B   [2]  00 F9
  can1  5CB   [5]  00 00 00 00 3E
  can1  64B   [2]  00 AA
  can1  5CB   [5]  FF FB CE 0D 3E
  can1  64B   [2]  00 21
  can1  5CB   [5]  00 00 00 21 3E
  can1  64B   [2]  00 22
  can1  5CB   [5]  00 00 00 00 3E
  can1  64B   [4]  01 F2 00 11
  can1  5CB   [5]  00 00 00 00 3E
  can1  64B   [4]  01 F2 00 14
  can1  5CB   [5]  00 00 00 00 3E
  can1  64B   [2]  00 29
  can1  5CB   [5]  00 00 00 14 3E
  can1  64B   [4]  01 F2 00 16
  can1  5CB   [5]  00 00 00 00 3E
  can1  64B   [4]  01 F2 00 03
  can1  5CB   [5]  00 00 00 00 3E
  can1  64B   [4]  00 EB 00 01
  can1  5CB   [5]  00 00 00 00 3E
  can1  64B   [4]  01 F2 00 04
  can1  5CB   [5]  00 00 00 00 3E
  can1  64B   [4]  00 EB 00 02
  can1  5CB   [5]  00 00 00 00 3E
  can1  64B   [2]  00 4E
  can1  5CB   [5]  00 00 00 03 3E
  can1  64B   [2]  00 F9
  can1  5CB   [5]  00 00 00 00 3E
  can1  64B   [2]  00 22
  can1  5CB   [5]  00 00 00 00 3E
  can1  64B   [2]  00 29
  can1  5CB   [5]  00 00 00 15 3E
  can1  64B   [2]  00 1F
  can1  5CB   [5]  00 00 00 00 3E
  can1  64B   [4]  00 EB 00 01
  can1  5CB   [5]  00 00 00 00 3E
  can1  64B   [2]  00 02
  can1  5CB   [5]  00 00 00 01 3E
  can1  64B   [4]  00 EB 00 02
  can1  5CB   [5]  00 00 00 00 3E
  can1  64B   [4]  00 05 00 03
  can1  5CB   [5]  00 00 00 00 3E
  can1  64B   [2]  00 04
  can1  5CB   [5]  00 00 00 00 3E
  can1  64B   [2]  00 08
  can1  5CB   [5]  00 00 00 08 3E
  can1  64B   [2]  00 26
  can1  5CB   [5]  00 00 00 15 3E
  can1  64B   [2]  00 24
  can1  5CB   [5]  00 00 BB 8C 3E
  can1  64B   [2]  00 9F
  can1  5CB   [5]  00 04 31 F4 3E
  can1  64B   [2]  01 00
  can1  5CB   [5]  00 00 00 00 3E
  can1  64B   [2]  00 9B
  can1  5CB   [5]  00 00 00 00 3E
  can1  64B   [2]  00 4E
  can1  5CB   [5]  00 00 00 03 3E
  can1  64B   [4]  00 23 00 01
  can1  5CB   [5]  00 00 00 00 3E
  can1  64B   [2]  00 F9
  can1  5CB   [5]  00 00 00 00 3E
  can1  64B   [2]  00 20
  can1  5CB   [5]  00 00 00 00 3E
  can1  64B   [2]  00 22
  can1  5CB   [5]  00 00 00 00 3E
  can1  64B   [2]  00 F9
  can1  5CB   [5]  00 00 00 00 3E
  can1  64B   [2]  00 29
  can1  5CB   [5]  00 00 00 15 3E
  can1  64B   [2]  00 9C
  can1  5CB   [5]  00 01 D6 B6 3E
  can1  64B   [4]  00 EB 00 01
  can1  5CB   [5]  00 00 00 00 3E
  can1  64B   [4]  00 01 00 04
  can1  5CB   [5]  08 F6 F8 63 3E
  can1  64B   [4]  00 EB 00 02
  can1  5CB   [5]  00 00 00 00 3E
  can1  64B   [4]  01 25 00 01
  can1  5CB   [5]  00 00 00 00 3E
  can1  64B   [4]  01 25 00 02
  can1  5CB   [5]  00 30 13 C0 3E
  can1  64B   [4]  01 25 00 03
  can1  5CB   [5]  00 00 00 00 3E
  can1  64B   [4]  01 25 00 04
  can1  5CB   [5]  00 00 00 00 3E
  can1  64B   [4]  01 25 00 05
  can1  5CB   [5]  00 00 00 00 3E
  can1  64B   [4]  01 25 00 06
  can1  5CB   [5]  00 00 00 00 3E
  can1  64B   [4]  01 25 00 07
  can1  5CB   [5]  00 00 00 00 3E
  can1  64B   [2]  00 22
  can1  5CB   [5]  00 00 00 00 3E
  can1  64B   [2]  01 0C
  can1  5CB   [5]  00 00 00 00 3E
  can1  64B   [2]  00 4E
  can1  5CB   [5]  00 00 00 03 3E
  can1  64B   [2]  01 0C
  can1  5CB   [5]  00 00 00 00 3E
  can1  64B   [4]  02 01 00 06
  can1  5CB   [5]  00 00 00 04 3E
  can1  64B   [2]  00 F9
  can1  5CB   [5]  00 00 00 00 3E
  can1  64B   [4]  02 01 00 07
  can1  5CB   [5]  00 00 00 01 3E
  can1  64B   [2]  01 19
  can1  5CB   [5]  00 00 01 6F 3E
  can1  64B   [2]  00 22
  can1  5CB   [5]  00 00 00 00 3E
  can1  64B   [4]  00 48 00 04
  can1  5CB   [5]  00 00 64 0B 3E
  can1  64B   [2]  01 13
  can1  5CB   [5]  00 00 00 01 3E
  can1  64B   [2]  00 29
  can1  5CB   [5]  00 00 00 16 3E
  can1  64B   [2]  00 AA
  can1  5CB   [5]  FF FB CE 0D 3E
  can1  64B   [2]  00 21
  can1  5CB   [5]  00 00 00 21 3E
  can1  64B   [4]  00 EB 00 01
  can1  5CB   [5]  00 00 00 00 3E
  can1  64B   [4]  01 F2 00 11
  can1  5CB   [5]  00 00 00 00 3E
  can1  64B   [4]  01 F2 00 14
  can1  5CB   [5]  00 00 00 00 3E
  can1  64B   [4]  00 EB 00 02
  can1  5CB   [5]  00 00 00 00 3E
  can1  64B   [4]  01 F2 00 16
  can1  5CB   [5]  00 00 00 00 3E
  can1  64B   [4]  01 F2 00 03
  can1  5CB   [5]  00 00 00 00 3E
  can1  64B   [4]  01 F2 00 04
  can1  5CB   [5]  00 00 00 00 3E
  can1  64B   [2]  00 4E
  can1  5CB   [5]  00 00 00 03 3E
  can1  64B   [2]  00 F9
  can1  5CB   [5]  00 00 00 00 3E
  can1  64B   [2]  00 22
  can1  5CB   [5]  00 00 00 00 3E
  can1  64B   [2]  00 29
  can1  5CB   [5]  00 00 00 17 3E
  can1  64B   [4]  00 EB 00 01
  can1  5CB   [5]  00 00 00 00 3E
  can1  64B   [4]  00 EB 00 02
  can1  5CB   [5]  00 00 00 00 3E
  can1  64B   [2]  00 1F
  can1  5CB   [5]  00 00 00 00 3E
  can1  64B   [2]  00 02
  can1  5CB   [5]  00 00 00 01 3E
  can1  64B   [4]  00 05 00 03
  can1  5CB   [5]  00 00 00 00 3E
  can1  64B   [2]  00 04
  can1  5CB   [5]  00 00 00 00 3E
  can1  64B   [2]  00 08
  can1  5CB   [5]  FF FF FF DA 3E
  can1  64B   [2]  00 26
  can1  5CB   [5]  00 00 00 15 3E
  can1  64B   [2]  00 24
  can1  5CB   [5]  00 00 BB 8C 3E
  can1  64B   [2]  00 4E
  can1  5CB   [5]  00 00 00 03 3E
  can1  64B   [2]  00 9F
  can1  5CB   [5]  00 04 31 F4 3E
  can1  64B   [2]  00 F9
  can1  5CB   [5]  00 00 00 00 3E
  can1  64B   [2]  01 00
  can1  5CB   [5]  00 00 00 00 3E
  can1  64B   [2]  00 22
  can1  5CB   [5]  00 00 00 00 3E
  can1  64B   [2]  00 9B
  can1  5CB   [5]  00 00 00 00 3E
  can1  64B   [2]  00 29
  can1  5CB   [5]  00 00 00 17 3E
  can1  64B   [4]  00 23 00 01
  can1  5CB   [5]  00 00 00 00 3E
  can1  64B   [4]  00 EB 00 01
  can1  5CB   [5]  00 00 00 00 3E
  can1  64B   [2]  00 20
  can1  5CB   [5]  00 00 00 00 3E
  can1  64B   [4]  00 EB 00 02
  can1  5CB   [5]  00 00 00 00 3E
  can1  64B   [2]  00 F9
  can1  5CB   [5]  00 00 00 00 3E
  can1  64B   [2]  00 9C
  can1  5CB   [5]  00 01 D6 B6 3E
  can1  64B   [4]  00 01 00 04
  can1  5CB   [5]  08 F6 F8 63 3E
  can1  64B   [4]  01 25 00 01
  can1  5CB   [5]  00 00 00 00 3E
  can1  64B   [4]  01 25 00 02
  can1  5CB   [5]  00 30 13 C0 3E
  can1  64B   [4]  01 25 00 03
  can1  5CB   [5]  00 00 00 00 3E
  can1  64B   [4]  01 25 00 04
  can1  5CB   [5]  00 00 00 00 3E
  can1  64B   [4]  01 25 00 05
  can1  5CB   [5]  00 00 00 00 3E
  can1  64B   [4]  01 25 00 06
  can1  5CB   [5]  00 00 00 00 3E
  can1  64B   [2]  00 4E
  can1  5CB   [5]  00 00 00 03 3E
  can1  64B   [4]  01 25 00 07
  can1  5CB   [5]  00 00 00 00 3E
  can1  64B   [2]  00 F9
  can1  5CB   [5]  00 00 00 00 3E
  can1  64B   [2]  00 22
  can1  5CB   [5]  00 00 00 00 3E
  can1  64B   [2]  00 22
  can1  5CB   [5]  00 00 00 00 3E
  can1  64B   [2]  01 0C
  can1  5CB   [5]  00 00 00 00 3E
  can1  64B   [2]  00 29
  can1  5CB   [5]  00 00 00 18 3E
  can1  64B   [2]  01 0C
  can1  5CB   [5]  00 00 00 00 3E
  can1  64B   [4]  02 01 00 06
  can1  5CB   [5]  00 00 00 04 3E
  can1  64B   [4]  00 EB 00 01
  can1  5CB   [5]  00 00 00 00 3E
