  can1  000   [2]  02 00
  can1  000   [2]  82 00
  can1  70B   [1]  00
  can1  60B   [8]  2F 60 60 00 01 00 00 00
  can1  58B   [8]  60 60 60 00 00 00 00 00
  can1  60B   [8]  40 61 60 00 00 00 00 00
  can1  58B   [8]  4F 61 60 00 01 00 00 00
  can1  60B   [8]  23 81 60 00 F6 FE 07 00
  can1  58B   [8]  60 81 60 00 00 00 00 00
  can1  60B   [8]  23 83 60 00 E6 8B 02 00
  can1  58B   [8]  60 83 60 00 00 00 00 00
  can1  60B   [8]  23 84 60 00 E6 8B 02 00
  can1  58B   [8]  60 84 60 00 00 00 00 00
  can1  60B   [8]  23 05 10 00 80 00 00 00
  can1  58B   [8]  60 05 10 00 00 00 00 00
  can1  60B   [8]  23 06 10 00 E8 03 00 00
  can1  58B   [8]  60 06 10 00 00 00 00 00
  can1  000   [2]  01 00
  can1  60B   [8]  2B 86 60 00 00 00 00 00
  can1  58B   [8]  60 86 60 00 00 00 00 00
  can1  60B   [8]  23 7D 60 01 EB 8D FF FF
  can1  58B   [8]  60 7D 60 01 00 00 00 00
  can1  60B   [8]  23 7D 60 02 15 72 00 00
  can1  58B   [8]  60 7D 60 02 00 00 00 00
  can1  60B   [8]  40 75 60 00 00 00 00 00
  can1  58B   [8]  43 75 60 00 70 94 00 00
  can1  60B   [8]  40 64 60 00 00 00 00 00
  can1  58B   [8]  43 64 60 00 FF FF FF FF
  can1  000   [2]  80 0B
  can1  60B   [8]  23 00 18 01 8B 01 00 80
  can1  58B   [8]  60 00 18 01 00 00 00 00
  can1  60B   [8]  2F 00 18 02 01 00 00 00
  can1  58B   [8]  60 00 18 02 00 00 00 00
  can1  60B   [8]  2B 00 18 05 00 00 00 00
  can1  58B   [8]  60 00 18 05 00 00 00 00
  can1  60B   [8]  2F 00 1A 00 00 00 00 00
  can1  58B   [8]  60 00 1A 00 00 00 00 00
  can1  60B   [8]  23 00 1A 01 10 00 41 60
  can1  58B   [8]  60 00 1A 01 00 00 00 00
  can1  60B   [8]  23 00 1A 02 20 00 64 60
  can1  58B   [8]  60 00 1A 02 00 00 00 00
  can1  60B   [8]  2F 00 1A 00 02 00 00 00
  can1  58B   [8]  60 00 1A 00 00 00 00 00
  can1  60B   [8]  23 00 18 01 8B 01 00 00
  can1  58B   [8]  60 00 18 01 00 00 00 00
  can1  60B   [8]  23 00 14 01 0B 02 00 80
  can1  58B   [8]  60 00 14 01 00 00 00 00
  can1  60B   [8]  2F 00 14 02 FF 00 00 00
  can1  58B   [8]  60 00 14 02 00 00 00 00
  can1  60B   [8]  2F 00 16 00 00 00 00 00
  can1  58B   [8]  60 00 16 00 00 00 00 00
  can1  60B   [8]  23 00 16 01 10 00 40 60
  can1  58B   [8]  60 00 16 01 00 00 00 00
  can1  60B   [8]  23 00 16 02 20 00 7A 60
  can1  58B   [8]  60 00 16 02 00 00 00 00
  can1  60B   [8]  2F 00 16 00 02 00 00 00
  can1  58B   [8]  60 00 16 00 00 00 00 00
  can1  60B   [8]  23 00 14 01 0B 02 00 00
  can1  58B   [8]  60 00 14 01 00 00 00 00
  can1  000   [2]  01 0B
  can1  000   [2]  01 00
  can1  080   [0] 
  can1  18B   [6]  40 02 01 00 00 00
  can1  080   [0] 
  can1  18B   [6]  40 02 00 00 00 00
  can1  080   [0] 
  can1  18B   [6]  40 02 FF FF FF FF
  can1  080   [0] 
  can1  18B   [6]  40 02 FF FF FF FF
  can1  080   [0] 
  can1  18B   [6]  40 02 01 00 00 00
  can1  080   [0] 
  can1  18B   [6]  40 02 00 00 00 00
  can1  080   [0] 
  can1  18B   [6]  40 02 00 00 00 00
  can1  080   [0] 
  can1  18B   [6]  40 02 00 00 00 00
  can1  080   [0] 
  can1  18B   [6]  40 02 FF FF FF FF
  can1  080   [0] 
  can1  18B   [6]  40 02 00 00 00 00
  can1  080   [0] 
  can1  18B   [6]  40 02 00 00 00 00
  can1  080   [0] 
  can1  18B   [6]  40 02 00 00 00 00
  can1  080   [0] 
  can1  18B   [6]  40 02 01 00 00 00
  can1  080   [0] 
  can1  18B   [6]  40 02 00 00 00 00
  can1  080   [0] 
  can1  18B   [6]  40 02 00 00 00 00
  can1  080   [0] 
  can1  18B   [6]  40 02 00 00 00 00
  can1  080   [0] 
  can1  18B   [6]  40 02 00 00 00 00
  can1  080   [0] 
  can1  18B   [6]  40 02 00 00 00 00
  can1  080   [0] 
  can1  18B   [6]  40 02 FF FF FF FF
  can1  080   [0] 
  can1  18B   [6]  40 02 00 00 00 00
  can1  080   [0] 
  can1  18B   [6]  40 02 FF FF FF FF
  can1  080   [0] 
  can1  18B   [6]  40 02 01 00 00 00
  can1  080   [0] 
  can1  18B   [6]  40 02 FF FF FF FF
  can1  080   [0] 
  can1  18B   [6]  40 02 00 00 00 00
  can1  080   [0] 
  can1  18B   [6]  40 02 00 00 00 00
  can1  080   [0] 
  can1  18B   [6]  40 02 00 00 00 00
  can1  080   [0] 
  can1  18B   [6]  40 02 01 00 00 00
  can1  080   [0] 
  can1  18B   [6]  40 02 00 00 00 00
  can1  080   [0] 
  can1  18B   [6]  40 02 00 00 00 00
  can1  080   [0] 
  can1  18B   [6]  40 02 00 00 00 00
  can1  080   [0] 
  can1  18B   [6]  40 02 00 00 00 00
  can1  080   [0] 
  can1  18B   [6]  40 02 00 00 00 00
  can1  080   [0] 
  can1  18B   [6]  40 02 FF FF FF FF
  can1  080   [0] 
  can1  18B   [6]  40 02 00 00 00 00
  can1  080   [0] 
  can1  18B   [6]  40 02 FF FF FF FF
  can1  080   [0] 
  can1  18B   [6]  40 02 00 00 00 00
  can1  080   [0] 
  can1  18B   [6]  40 02 00 00 00 00
  can1  080   [0] 
  can1  18B   [6]  40 02 00 00 00 00
  can1  080   [0] 
  can1  18B   [6]  40 02 00 00 00 00
  can1  080   [0] 
  can1  18B   [6]  40 02 00 00 00 00
  can1  080   [0] 
  can1  18B   [6]  40 02 FF FF FF FF
  can1  080   [0] 
  can1  18B   [6]  40 02 00 00 00 00
  can1  080   [0] 
  can1  18B   [6]  40 02 00 00 00 00
  can1  080   [0] 
  can1  18B   [6]  40 02 00 00 00 00
  can1  080   [0] 
  can1  18B   [6]  40 02 00 00 00 00
  can1  080   [0] 
  can1  18B   [6]  40 02 00 00 00 00
  can1  080   [0] 
  can1  18B   [6]  40 02 01 00 00 00
  can1  080   [0] 
  can1  18B   [6]  40 02 00 00 00 00
  can1  080   [0] 
  can1  18B   [6]  40 02 00 00 00 00
  can1  080   [0] 
  can1  18B   [6]  40 02 00 00 00 00
  can1  080   [0] 
  can1  18B   [6]  40 02 01 00 00 00
  can1  080   [0] 
  can1  18B   [6]  40 02 00 00 00 00
  can1  080   [0] 
  can1  18B   [6]  40 02 00 00 00 00
  can1  080   [0] 
  can1  18B   [6]  40 02 00 00 00 00
  can1  080   [0] 
  can1  18B   [6]  40 02 01 00 00 00
  can1  080   [0] 
  can1  18B   [6]  40 02 00 00 00 00
  can1  080   [0] 
  can1  18B   [6]  40 02 00 00 00 00
  can1  080   [0] 
  can1  18B   [6]  40 02 01 00 00 00
  can1  080   [0] 
  can1  18B   [6]  40 02 01 00 00 00
  can1  080   [0] 
  can1  18B   [6]  40 02 00 00 00 00
  can1  080   [0] 
  can1  18B   [6]  40 02 00 00 00 00
  can1  080   [0] 
  can1  18B   [6]  40 02 00 00 00 00
  can1  080   [0] 
  can1  18B   [6]  40 02 00 00 00 00
  can1  080   [0] 
  can1  18B   [6]  40 02 00 00 00 00
  can1  080   [0] 
  can1  18B   [6]  40 02 FF FF FF FF
  can1  080   [0] 
  can1  18B   [6]  40 02 00 00 00 00
  can1  080   [0] 
  can1  18B   [6]  40 02 FF FF FF FF
  can1  080   [0] 
  can1  18B   [6]  40 02 FF FF FF FF
  can1  080   [0] 
  can1  18B   [6]  40 02 FF FF FF FF
  can1  080   [0] 
  can1  18B   [6]  40 02 00 00 00 00
  can1  080   [0] 
  can1  18B   [6]  40 02 00 00 00 00
  can1  080   [0] 
  can1  18B   [6]  40 02 FF FF FF FF
  can1  080   [0] 
  can1  18B   [6]  40 02 FF FF FF FF
  can1  080   [0] 
  can1  18B   [6]  40 02 FF FF FF FF
  can1  080   [0] 
  can1  18B   [6]  40 02 00 00 00 00
  can1  080   [0] 
  can1  18B   [6]  40 02 00 00 00 00
  can1  080   [0] 
  can1  18B   [6]  40 02 00 00 00 00
  can1  080   [0] 
  can1  18B   [6]  40 02 00 00 00 00
  can1  080   [0] 
  can1  18B   [6]  40 02 00 00 00 00
  can1  080   [0] 
  can1  18B   [6]  40 02 00 00 00 00
  can1  080   [0] 
  can1  18B   [6]  40 02 00 00 00 00
  can1  080   [0] 
  can1  18B   [6]  40 02 01 00 00 00
  can1  080   [0] 
  can1  18B   [6]  40 02 01 00 00 00
  can1  080   [0] 
  can1  18B   [6]  40 02 01 00 00 00
  can1  080   [0] 
  can1  18B   [6]  40 02 00 00 00 00
  can1  080   [0] 
  can1  18B   [6]  40 02 00 00 00 00
  can1  080   [0] 
  can1  18B   [6]  40 02 01 00 00 00
  can1  080   [0] 
  can1  18B   [6]  40 02 FF FF FF FF
  can1  080   [0] 
  can1  18B   [6]  40 02 00 00 00 00
  can1  080   [0] 
  can1  18B   [6]  40 02 00 00 00 00
  can1  080   [0] 
  can1  18B   [6]  40 02 01 00 00 00
  can1  080   [0] 
  can1  18B   [6]  40 02 00 00 00 00
  can1  080   [0] 
  can1  18B   [6]  40 02 00 00 00 00
  can1  080   [0] 
  can1  18B   [6]  40 02 00 00 00 00
  can1  080   [0] 
  can1  18B   [6]  40 02 00 00 00 00
  can1  080   [0] 
  can1  18B   [6]  40 02 00 00 00 00
  can1  080   [0] 
  can1  18B   [6]  40 02 00 00 00 00
  can1  080   [0] 
  can1  18B   [6]  40 02 00 00 00 00
  can1  080   [0] 
  can1  18B   [6]  40 02 FF FF FF FF
  can1  080   [0] 
  can1  18B   [6]  40 02 00 00 00 00
  can1  080   [0] 
  can1  18B   [6]  40 02 00 00 00 00
  can1  080   [0] 
  can1  18B   [6]  40 02 00 00 00 00
  can1  080   [0] 
  can1  18B   [6]  40 02 FF FF FF FF
  can1  080   [0] 
  can1  18B   [6]  40 02 00 00 00 00
  can1  080   [0] 
  can1  18B   [6]  40 02 00 00 00 00
  can1  080   [0] 
  can1  18B   [6]  40 02 00 00 00 00
  can1  080   [0] 
  can1  18B   [6]  40 02 00 00 00 00
  can1  080   [0] 
  can1  18B   [6]  40 02 00 00 00 00
  can1  080   [0] 
  can1  18B   [6]  40 02 FF FF FF FF
  can1  080   [0] 
  can1  18B   [6]  40 02 00 00 00 00
  can1  080   [0] 
  can1  18B   [6]  40 02 FF FF FF FF
  can1  080   [0] 
  can1  18B   [6]  40 02 00 00 00 00
  can1  080   [0] 
  can1  18B   [6]  40 02 01 00 00 00
  can1  080   [0] 
  can1  18B   [6]  40 02 00 00 00 00
  can1  080   [0] 
  can1  18B   [6]  40 02 FF FF FF FF
  can1  080   [0] 
  can1  18B   [6]  40 02 FF FF FF FF
  can1  080   [0] 
  can1  18B   [6]  40 02 00 00 00 00
  can1  080   [0] 
  can1  18B   [6]  40 02 01 00 00 00
  can1  080   [0] 
  can1  18B   [6]  40 02 01 00 00 00
  can1  080   [0] 
  can1  18B   [6]  40 02 00 00 00 00
  can1  080   [0] 
  can1  18B   [6]  40 02 00 00 00 00
  can1  080   [0] 
  can1  18B   [6]  40 02 00 00 00 00
  can1  080   [0] 
  can1  18B   [6]  40 02 00 00 00 00
  can1  080   [0] 
  can1  18B   [6]  40 02 FF FF FF FF
  can1  080   [0] 
  can1  18B   [6]  40 02 00 00 00 00
  can1  080   [0] 
  can1  18B   [6]  40 02 00 00 00 00
  can1  080   [0] 
  can1  18B   [6]  40 02 FF FF FF FF
  can1  080   [0] 
  can1  18B   [6]  40 02 00 00 00 00
  can1  080   [0] 
  can1  18B   [6]  40 02 00 00 00 00
  can1  080   [0] 
  can1  18B   [6]  40 02 00 00 00 00
  can1  080   [0] 
  can1  18B   [6]  40 02 00 00 00 00
  can1  080   [0] 
  can1  18B   [6]  40 02 00 00 00 00
  can1  080   [0] 
  can1  18B   [6]  40 02 00 00 00 00
  can1  080   [0] 
  can1  18B   [6]  40 02 00 00 00 00
  can1  080   [0] 
  can1  18B   [6]  40 02 00 00 00 00
  can1  080   [0] 
  can1  18B   [6]  40 02 00 00 00 00
  can1  080   [0] 
  can1  18B   [6]  40 02 00 00 00 00
  can1  080   [0] 
  can1  18B   [6]  40 02 00 00 00 00
  can1  080   [0] 
  can1  18B   [6]  40 02 00 00 00 00
  can1  080   [0] 
  can1  18B   [6]  40 02 00 00 00 00
  can1  080   [0] 
  can1  18B   [6]  40 02 00 00 00 00
  can1  080   [0] 
  can1  18B   [6]  40 02 00 00 00 00
  can1  080   [0] 
  can1  18B   [6]  40 02 00 00 00 00
  can1  080   [0] 
  can1  18B   [6]  40 02 00 00 00 00
  can1  080   [0] 
  can1  18B   [6]  40 02 FF FF FF FF
  can1  080   [0] 
  can1  18B   [6]  40 02 00 00 00 00
  can1  080   [0] 
  can1  18B   [6]  40 02 00 00 00 00
  can1  080   [0] 
  can1  18B   [6]  40 02 FF FF FF FF
  can1  080   [0] 
  can1  18B   [6]  40 02 00 00 00 00
  can1  080   [0] 
  can1  18B   [6]  40 02 01 00 00 00
  can1  080   [0] 
  can1  18B   [6]  40 02 00 00 00 00
  can1  080   [0] 
  can1  18B   [6]  40 02 00 00 00 00
  can1  080   [0] 
  can1  18B   [6]  40 02 02 00 00 00
  can1  080   [0] 
  can1  18B   [6]  40 02 00 00 00 00
  can1  080   [0] 
  can1  18B   [6]  40 02 00 00 00 00
  can1  080   [0] 
  can1  18B   [6]  40 02 00 00 00 00
  can1  080   [0] 
  can1  18B   [6]  40 02 01 00 00 00
  can1  080   [0] 
  can1  18B   [6]  40 02 FF FF FF FF
  can1  080   [0] 
  can1  18B   [6]  40 02 00 00 00 00
  can1  080   [0] 
  can1  18B   [6]  40 02 01 00 00 00
  can1  080   [0] 
  can1  18B   [6]  40 02 FF FF FF FF
  can1  080   [0] 
  can1  18B   [6]  40 02 FF FF FF FF
  can1  080   [0] 
  can1  18B   [6]  40 02 00 00 00 00
  can1  080   [0] 
  can1  18B   [6]  40 02 00 00 00 00
  can1  080   [0] 
  can1  18B   [6]  40 02 00 00 00 00
  can1  080   [0] 
  can1  18B   [6]  40 02 FF FF FF FF
  can1  080   [0] 
  can1  18B   [6]  40 02 00 00 00 00
  can1  080   [0] 
  can1  18B   [6]  40 02 00 00 00 00
  can1  080   [0] 
  can1  18B   [6]  40 02 00 00 00 00
  can1  080   [0] 
  can1  18B   [6]  40 02 01 00 00 00
  can1  080   [0] 
  can1  18B   [6]  40 02 00 00 00 00
  can1  080   [0] 
  can1  18B   [6]  40 02 01 00 00 00
  can1  080   [0] 
  can1  18B   [6]  40 02 00 00 00 00
  can1  080   [0] 
  can1  18B   [6]  40 02 00 00 00 00
  can1  080   [0] 
  can1  18B   [6]  40 02 00 00 00 00
  can1  080   [0] 
  can1  18B   [6]  40 02 00 00 00 00
  can1  080   [0] 
  can1  18B   [6]  40 02 00 00 00 00
  can1  080   [0] 
  can1  18B   [6]  40 02 01 00 00 00
  can1  080   [0] 
  can1  18B   [6]  40 02 FF FF FF FF
  can1  080   [0] 
  can1  18B   [6]  40 02 01 00 00 00
  can1  080   [0] 
  can1  18B   [6]  40 02 00 00 00 00
  can1  080   [0] 
  can1  18B   [6]  40 02 01 00 00 00
  can1  080   [0] 
  can1  18B   [6]  40 02 00 00 00 00
  can1  080   [0] 
  can1  18B   [6]  40 02 FF FF FF FF
  can1  080   [0] 
  can1  18B   [6]  40 02 00 00 00 00
  can1  080   [0] 
  can1  18B   [6]  40 02 00 00 00 00
  can1  080   [0] 
  can1  18B   [6]  40 02 00 00 00 00
  can1  080   [0] 
  can1  18B   [6]  40 02 FF FF FF FF
  can1  080   [0] 
  can1  18B   [6]  40 02 FF FF FF FF
  can1  080   [0] 
  can1  18B   [6]  40 02 00 00 00 00
  can1  080   [0] 
  can1  18B   [6]  40 02 FF FF FF FF
  can1  080   [0] 
  can1  18B   [6]  40 02 00 00 00 00
  can1  080   [0] 
  can1  18B   [6]  40 02 00 00 00 00
  can1  080   [0] 
  can1  18B   [6]  40 02 00 00 00 00
  can1  080   [0] 
  can1  18B   [6]  40 02 00 00 00 00
  can1  080   [0] 
  can1  18B   [6]  40 02 00 00 00 00
  can1  080   [0] 
  can1  18B   [6]  40 02 01 00 00 00
  can1  080   [0] 
  can1  18B   [6]  40 02 00 00 00 00
  can1  080   [0] 
  can1  18B   [6]  40 02 01 00 00 00
  can1  080   [0] 
  can1  18B   [6]  40 02 00 00 00 00
  can1  080   [0] 
  can1  18B   [6]  40 02 00 00 00 00
  can1  080   [0] 
  can1  18B   [6]  40 02 00 00 00 00
  can1  080   [0] 
  can1  18B   [6]  40 02 01 00 00 00
  can1  080   [0] 
  can1  18B   [6]  40 02 FF FF FF FF
  can1  080   [0] 
  can1  18B   [6]  40 02 00 00 00 00
  can1  080   [0] 
  can1  18B   [6]  40 02 00 00 00 00
  can1  080   [0] 
  can1  18B   [6]  40 02 00 00 00 00
  can1  080   [0] 
  can1  18B   [6]  40 02 FF FF FF FF
  can1  080   [0] 
  can1  18B   [6]  40 02 00 00 00 00
  can1  080   [0] 
  can1  18B   [6]  40 02 00 00 00 00
  can1  080   [0] 
  can1  18B   [6]  40 02 00 00 00 00
  can1  080   [0] 
  can1  18B   [6]  40 02 00 00 00 00
  can1  080   [0] 
  can1  18B   [6]  40 02 00 00 00 00
  can1  080   [0] 
  can1  18B   [6]  40 02 00 00 00 00
  can1  080   [0] 
  can1  18B   [6]  40 02 FF FF FF FF
  can1  080   [0] 
  can1  18B   [6]  40 02 01 00 00 00
  can1  080   [0] 
  can1  18B   [6]  40 02 00 00 00 00
  can1  080   [0] 
  can1  18B   [6]  40 02 00 00 00 00
  can1  080   [0] 
  can1  18B   [6]  40 02 00 00 00 00
  can1  080   [0] 
  can1  18B   [6]  40 02 01 00 00 00
  can1  080   [0] 
  can1  18B   [6]  40 02 FF FF FF FF
  can1  080   [0] 
  can1  18B   [6]  40 02 00 00 00 00
  can1  080   [0] 
  can1  18B   [6]  40 02 01 00 00 00
  can1  080   [0] 
  can1  18B   [6]  40 02 00 00 00 00
  can1  080   [0] 
  can1  18B   [6]  40 02 FF FF FF FF
  can1  080   [0] 
  can1  18B   [6]  40 02 00 00 00 00
  can1  080   [0] 
  can1  18B   [6]  40 02 00 00 00 00
  can1  080   [0] 
  can1  18B   [6]  40 02 00 00 00 00
  can1  080   [0] 
  can1  18B   [6]  40 02 00 00 00 00
  can1  080   [0] 
  can1  18B   [6]  40 02 01 00 00 00
  can1  080   [0] 
  can1  18B   [6]  40 02 00 00 00 00
  can1  080   [0] 
  can1  18B   [6]  40 02 FF FF FF FF
  can1  080   [0] 
  can1  18B   [6]  40 02 00 00 00 00
  can1  080   [0] 
  can1  18B   [6]  40 02 00 00 00 00
  can1  080   [0] 
  can1  18B   [6]  40 02 00 00 00 00
  can1  080   [0] 
  can1  18B   [6]  40 02 00 00 00 00
  can1  080   [0] 
  can1  18B   [6]  40 02 00 00 00 00
  can1  080   [0] 
  can1  18B   [6]  40 02 FF FF FF FF
  can1  080   [0] 
  can1  18B   [6]  40 02 FF FF FF FF
  can1  080   [0] 
  can1  18B   [6]  40 02 00 00 00 00
  can1  080   [0] 
  can1  18B   [6]  40 02 01 00 00 00
  can1  080   [0] 
  can1  18B   [6]  40 02 00 00 00 00
  can1  080   [0] 
  can1  18B   [6]  40 02 00 00 00 00
  can1  080   [0] 
  can1  18B   [6]  40 02 01 00 00 00
  can1  080   [0] 
  can1  18B   [6]  40 02 FF FF FF FF
  can1  080   [0] 
  can1  18B   [6]  40 02 01 00 00 00
  can1  080   [0] 
  can1  18B   [6]  40 02 FF FF FF FF
  can1  080   [0] 
  can1  18B   [6]  40 02 00 00 00 00
  can1  080   [0] 
  can1  18B   [6]  40 02 00 00 00 00
  can1  080   [0] 
  can1  18B   [6]  40 02 00 00 00 00
  can1  080   [0] 
  can1  18B   [6]  40 02 00 00 00 00
  can1  080   [0] 
  can1  18B   [6]  40 02 00 00 00 00
  can1  080   [0] 
  can1  18B   [6]  40 02 FF FF FF FF
  can1  080   [0] 
  can1  18B   [6]  40 02 00 00 00 00
  can1  080   [0] 
  can1  18B   [6]  40 02 FF FF FF FF
  can1  080   [0] 
  can1  18B   [6]  40 02 01 00 00 00
  can1  080   [0] 
  can1  18B   [6]  40 02 FF FF FF FF
  can1  080   [0] 
  can1  18B   [6]  40 02 00 00 00 00
  can1  080   [0] 
  can1  18B   [6]  40 02 01 00 00 00
  can1  080   [0] 
  can1  18B   [6]  40 02 00 00 00 00
  can1  080   [0] 
  can1  18B   [6]  40 02 FF FF FF FF
  can1  080   [0] 
  can1  18B   [6]  40 02 FF FF FF FF
  can1  080   [0] 
  can1  18B   [6]  40 02 00 00 00 00
  can1  080   [0] 
  can1  18B   [6]  40 02 00 00 00 00
  can1  080   [0] 
  can1  18B   [6]  40 02 00 00 00 00
  can1  080   [0] 
  can1  18B   [6]  40 02 00 00 00 00
  can1  080   [0] 
  can1  18B   [6]  40 02 00 00 00 00
  can1  080   [0] 
  can1  18B   [6]  40 02 FF FF FF FF
  can1  080   [0] 
  can1  18B   [6]  40 02 02 00 00 00
  can1  080   [0] 
  can1  18B   [6]  40 02 00 00 00 00
  can1  080   [0] 
  can1  18B   [6]  40 02 00 00 00 00
  can1  080   [0] 
  can1  18B   [6]  40 02 FF FF FF FF
  can1  080   [0] 
  can1  18B   [6]  40 02 00 00 00 00
  can1  080   [0] 
  can1  18B   [6]  40 02 00 00 00 00
  can1  080   [0] 
  can1  18B   [6]  40 02 00 00 00 00
  can1  080   [0] 
  can1  18B   [6]  40 02 00 00 00 00
  can1  080   [0] 
  can1  18B   [6]  40 02 00 00 00 00
  can1  080   [0] 
  can1  18B   [6]  40 02 00 00 00 00
  can1  080   [0] 
  can1  18B   [6]  40 02 00 00 00 00
  can1  080   [0] 
  can1  18B   [6]  40 02 00 00 00 00
  can1  080   [0] 
  can1  18B   [6]  40 02 01 00 00 00
  can1  080   [0] 
  can1  18B   [6]  40 02 00 00 00 00
  can1  080   [0] 
  can1  18B   [6]  40 02 00 00 00 00
  can1  080   [0] 
  can1  18B   [6]  40 02 00 00 00 00
  can1  080   [0] 
  can1  18B   [6]  40 02 FF FF FF FF
  can1  080   [0] 
  can1  18B   [6]  40 02 01 00 00 00
  can1  080   [0] 
  can1  18B   [6]  40 02 00 00 00 00
  can1  080   [0] 
  can1  18B   [6]  40 02 00 00 00 00
  can1  080   [0] 
  can1  18B   [6]  40 02 00 00 00 00
  can1  080   [0] 
  can1  18B   [6]  40 02 00 00 00 00
  can1  080   [0] 
  can1  18B   [6]  40 02 01 00 00 00
  can1  080   [0] 
  can1  18B   [6]  40 02 FF FF FF FF
  can1  080   [0] 
  can1  18B   [6]  40 02 FF FF FF FF
  can1  080   [0] 
  can1  18B   [6]  40 02 00 00 00 00
  can1  080   [0] 
  can1  18B   [6]  40 02 01 00 00 00
  can1  080   [0] 
  can1  18B   [6]  40 02 00 00 00 00
  can1  080   [0] 
  can1  18B   [6]  40 02 00 00 00 00
  can1  080   [0] 
  can1  18B   [6]  40 02 01 00 00 00
  can1  20B   [6]  26 00 FF FF FF FF
  can1  080   [0] 
  can1  18B   [6]  21 02 00 00 00 00
  can1  080   [0] 
  can1  18B   [6]  21 02 FF FF FF FF
  can1  080   [0] 
  can1  18B   [6]  21 02 00 00 00 00
  can1  080   [0] 
  can1  18B   [6]  21 02 FF FF FF FF
  can1  080   [0] 
  can1  18B   [6]  21 02 00 00 00 00
  can1  080   [0] 
  can1  18B   [6]  21 02 01 00 00 00
  can1  080   [0] 
  can1  18B   [6]  21 02 00 00 00 00
  can1  080   [0] 
  can1  18B   [6]  21 02 00 00 00 00
  can1  080   [0] 
  can1  18B   [6]  21 02 00 00 00 00
  can1  080   [0] 
  can1  20B   [6]  27 00 FF FF FF FF
  can1  18B   [6]  33 02 00 00 00 00
  can1  080   [0] 
  can1  18B   [6]  33 02 00 00 00 00
  can1  080   [0] 
  can1  18B   [6]  33 02 01 00 00 00
  can1  080   [0] 
  can1  18B   [6]  33 02 01 00 00 00
  can1  080   [0] 
  can1  18B   [6]  33 02 01 00 00 00
  can1  080   [0] 
  can1  18B   [6]  33 02 00 00 00 00
  can1  080   [0] 
  can1  18B   [6]  33 02 01 00 00 00
  can1  080   [0] 
  can1  18B   [6]  33 02 00 00 00 00
  can1  080   [0] 
  can1  18B   [6]  33 02 00 00 00 00
  can1  080   [0] 
  can1  18B   [6]  33 02 00 00 00 00
  can1  20B   [6]  2F 00 FF FF FF FF
  can1  080   [0] 
  can1  18B   [6]  37 02 00 00 00 00
  can1  080   [0] 
  can1  18B   [6]  37 06 00 00 00 00
  can1  080   [0] 
  can1  18B   [6]  37 06 01 00 00 00
  can1  080   [0] 
  can1  18B   [6]  37 06 00 00 00 00
  can1  080   [0] 
  can1  18B   [6]  37 06 00 00 00 00
  can1  080   [0] 
  can1  18B   [6]  37 06 00 00 00 00
  can1  080   [0] 
  can1  18B   [6]  37 06 00 00 00 00
  can1  080   [0] 
  can1  18B   [6]  37 06 01 00 00 00
  can1  080   [0] 
  can1  18B   [6]  37 06 00 00 00 00
  can1  080   [0] 
  can1  18B   [6]  37 06 00 00 00 00
  can1  080   [0] 
  can1  18B   [6]  37 06 01 00 00 00
  can1  080   [0] 
  can1  18B   [6]  37 06 01 00 00 00
  can1  080   [0] 
  can1  18B   [6]  37 06 00 00 00 00
  can1  080   [0] 
  can1  18B   [6]  37 06 00 00 00 00
  can1  080   [0] 
  can1  18B   [6]  37 06 00 00 00 00
  can1  080   [0] 
  can1  18B   [6]  37 06 00 00 00 00
  can1  080   [0] 
  can1  18B   [6]  37 06 FF FF FF FF
  can1  080   [0] 
  can1  18B   [6]  37 06 FF FF FF FF
  can1  080   [0] 
  can1  18B   [6]  37 06 00 00 00 00
  can1  080   [0] 
  can1  18B   [6]  37 06 00 00 00 00
  can1  080   [0] 
  can1  18B   [6]  37 06 FF FF FF FF
  can1  080   [0] 
  can1  18B   [6]  37 06 FF FF FF FF
  can1  080   [0] 
  can1  18B   [6]  37 06 FF FF FF FF
  can1  080   [0] 
  can1  18B   [6]  37 06 00 00 00 00
  can1  080   [0] 
  can1  18B   [6]  37 06 00 00 00 00
  can1  080   [0] 
  can1  18B   [6]  37 06 00 00 00 00
  can1  080   [0] 
  can1  18B   [6]  37 06 00 00 00 00
  can1  080   [0] 
  can1  18B   [6]  37 06 00 00 00 00
  can1  080   [0] 
  can1  18B   [6]  37 06 FF FF FF FF
  can1  080   [0] 
  can1  18B   [6]  37 06 FF FF FF FF
  can1  080   [0] 
  can1  18B   [6]  37 06 00 00 00 00
  can1  080   [0] 
  can1  18B   [6]  37 06 00 00 00 00
  can1  080   [0] 
  can1  18B   [6]  37 06 FF FF FF FF
  can1  080   [0] 
  can1  18B   [6]  37 06 FF FF FF FF
  can1  080   [0] 
  can1  18B   [6]  37 06 FF FF FF FF
  can1  080   [0] 
  can1  18B   [6]  37 06 FF FF FF FF
  can1  080   [0] 
  can1  18B   [6]  37 06 FF FF FF FF
  can1  080   [0] 
  can1  18B   [6]  37 06 FF FF FF FF
  can1  080   [0] 
  can1  18B   [6]  37 06 FE FF FF FF
  can1  080   [0] 
  can1  18B   [6]  37 06 00 00 00 00
  can1  080   [0] 
  can1  18B   [6]  37 06 FF FF FF FF
  can1  080   [0] 
  can1  18B   [6]  37 06 00 00 00 00
  can1  080   [0] 
  can1  18B   [6]  37 06 00 00 00 00
  can1  080   [0] 
  can1  18B   [6]  37 06 00 00 00 00
  can1  080   [0] 
  can1  18B   [6]  37 06 FF FF FF FF
  can1  080   [0] 
  can1  18B   [6]  37 06 FF FF FF FF
  can1  080   [0] 
  can1  18B   [6]  37 06 00 00 00 00
  can1  080   [0] 
  can1  18B   [6]  37 06 00 00 00 00
  can1  080   [0] 
  can1  18B   [6]  37 06 00 00 00 00
  can1  080   [0] 
  can1  18B   [6]  37 06 FF FF FF FF
  can1  080   [0] 
  can1  18B   [6]  37 06 00 00 00 00
  can1  080   [0] 
  can1  18B   [6]  37 06 FF FF FF FF
  can1  080   [0] 
  can1  18B   [6]  37 06 FF FF FF FF
  can1  080   [0] 
  can1  18B   [6]  37 06 FF FF FF FF
  can1  080   [0] 
  can1  18B   [6]  37 06 00 00 00 00
  can1  080   [0] 
  can1  18B   [6]  37 06 FF FF FF FF
  can1  080   [0] 
  can1  18B   [6]  37 06 FF FF FF FF
  can1  080   [0] 
  can1  18B   [6]  37 06 FF FF FF FF
  can1  080   [0] 
  can1  18B   [6]  37 06 00 00 00 00
  can1  080   [0] 
  can1  18B   [6]  37 06 FF FF FF FF
  can1  080   [0] 
  can1  18B   [6]  37 06 FF FF FF FF
  can1  080   [0] 
  can1  18B   [6]  37 06 FF FF FF FF
  can1  080   [0] 
  can1  18B   [6]  37 06 00 00 00 00
  can1  080   [0] 
  can1  18B   [6]  37 06 00 00 00 00
  can1  080   [0] 
  can1  18B   [6]  37 06 FE FF FF FF
  can1  080   [0] 
  can1  18B   [6]  37 06 FF FF FF FF
  can1  080   [0] 
  can1  18B   [6]  37 06 FF FF FF FF
  can1  080   [0] 
  can1  18B   [6]  37 06 FF FF FF FF
  can1  080   [0] 
  can1  18B   [6]  37 06 00 00 00 00
  can1  080   [0] 
  can1  18B   [6]  37 06 00 00 00 00
  can1  080   [0] 
  can1  18B   [6]  37 06 FF FF FF FF
  can1  080   [0] 
  can1  18B   [6]  37 06 FF FF FF FF
  can1  080   [0] 
  can1  18B   [6]  37 06 00 00 00 00
  can1  080   [0] 
  can1  18B   [6]  37 06 00 00 00 00
  can1  080   [0] 
  can1  18B   [6]  37 06 FF FF FF FF
  can1  080   [0] 
  can1  18B   [6]  37 06 FF FF FF FF
  can1  080   [0] 
  can1  18B   [6]  37 06 FF FF FF FF
  can1  080   [0] 
  can1  18B   [6]  37 06 00 00 00 00
  can1  080   [0] 
  can1  18B   [6]  37 06 FF FF FF FF
  can1  080   [0] 
  can1  18B   [6]  37 06 FF FF FF FF
  can1  080   [0] 
  can1  18B   [6]  37 06 FF FF FF FF
  can1  080   [0] 
  can1  18B   [6]  37 06 00 00 00 00
  can1  080   [0] 
  can1  18B   [6]  37 06 01 00 00 00
  can1  080   [0] 
  can1  18B   [6]  37 06 FF FF FF FF
  can1  080   [0] 
  can1  18B   [6]  37 06 00 00 00 00
  can1  080   [0] 
  can1  18B   [6]  37 06 FF FF FF FF
  can1  080   [0] 
  can1  18B   [6]  37 06 00 00 00 00
  can1  080   [0] 
  can1  18B   [6]  37 06 FF FF FF FF
  can1  080   [0] 
  can1  18B   [6]  37 06 FF FF FF FF
  can1  080   [0] 
  can1  18B   [6]  37 06 FF FF FF FF
  can1  080   [0] 
  can1  18B   [6]  37 06 FF FF FF FF
  can1  080   [0] 
  can1  18B   [6]  37 06 00 00 00 00
  can1  080   [0] 
  can1  18B   [6]  37 06 FF FF FF FF
  can1  080   [0] 
  can1  18B   [6]  37 06 00 00 00 00
  can1  080   [0] 
  can1  18B   [6]  37 06 00 00 00 00
  can1  080   [0] 
  can1  18B   [6]  37 06 00 00 00 00
  can1  080   [0] 
  can1  18B   [6]  37 06 FF FF FF FF
  can1  080   [0] 
  can1  18B   [6]  37 06 FF FF FF FF
  can1  080   [0] 
  can1  18B   [6]  37 06 FF FF FF FF
  can1  080   [0] 
  can1  18B   [6]  37 06 00 00 00 00
  can1  080   [0] 
  can1  18B   [6]  37 06 00 00 00 00
  can1  080   [0] 
  can1  18B   [6]  37 06 FF FF FF FF
  can1  080   [0] 
  can1  18B   [6]  37 06 FF FF FF FF
  can1  080   [0] 
  can1  18B   [6]  37 06 00 00 00 00
  can1  080   [0] 
  can1  18B   [6]  37 06 FF FF FF FF
  can1  080   [0] 
  can1  18B   [6]  37 06 FF FF FF FF
  can1  080   [0] 
  can1  18B   [6]  37 06 FF FF FF FF
  can1  080   [0] 
  can1  18B   [6]  37 06 FF FF FF FF
  can1  080   [0] 
  can1  18B   [6]  37 06 FF FF FF FF
  can1  080   [0] 
  can1  18B   [6]  37 06 00 00 00 00
  can1  080   [0] 
  can1  18B   [6]  37 06 FF FF FF FF
  can1  080   [0] 
  can1  18B   [6]  37 06 00 00 00 00
  can1  080   [0] 
  can1  18B   [6]  37 06 00 00 00 00
  can1  080   [0] 
  can1  18B   [6]  37 06 FF FF FF FF
  can1  080   [0] 
  can1  18B   [6]  37 06 FF FF FF FF
  can1  080   [0] 
  can1  18B   [6]  37 06 00 00 00 00
  can1  080   [0] 
  can1  18B   [6]  37 06 FF FF FF FF
  can1  080   [0] 
  can1  18B   [6]  37 06 00 00 00 00
  can1  080   [0] 
  can1  18B   [6]  37 06 00 00 00 00
  can1  080   [0] 
  can1  18B   [6]  37 06 00 00 00 00
  can1  080   [0] 
  can1  18B   [6]  37 06 00 00 00 00
  can1  080   [0] 
  can1  18B   [6]  37 06 00 00 00 00
  can1  080   [0] 
  can1  18B   [6]  37 06 FF FF FF FF
  can1  080   [0] 
  can1  18B   [6]  37 06 01 00 00 00
  can1  080   [0] 
  can1  18B   [6]  37 06 FF FF FF FF
  can1  080   [0] 
  can1  18B   [6]  37 06 00 00 00 00
  can1  080   [0] 
  can1  18B   [6]  37 06 FF FF FF FF
  can1  080   [0] 
  can1  18B   [6]  37 06 00 00 00 00
  can1  080   [0] 
  can1  18B   [6]  37 06 00 00 00 00
  can1  080   [0] 
  can1  18B   [6]  37 06 00 00 00 00
  can1  080   [0] 
  can1  18B   [6]  37 06 FF FF FF FF
  can1  080   [0] 
  can1  18B   [6]  37 06 00 00 00 00
  can1  080   [0] 
  can1  18B   [6]  37 06 00 00 00 00
  can1  080   [0] 
  can1  18B   [6]  37 06 FF FF FF FF
  can1  080   [0] 
  can1  18B   [6]  37 06 FF FF FF FF
  can1  080   [0] 
  can1  18B   [6]  37 06 00 00 00 00
  can1  080   [0] 
  can1  18B   [6]  37 06 FF FF FF FF
  can1  080   [0] 
  can1  18B   [6]  37 06 00 00 00 00
  can1  080   [0] 
  can1  18B   [6]  37 06 00 00 00 00
  can1  080   [0] 
  can1  18B   [6]  37 06 00 00 00 00
  can1  080   [0] 
  can1  18B   [6]  37 06 FF FF FF FF
  can1  080   [0] 
  can1  18B   [6]  37 06 FF FF FF FF
  can1  080   [0] 
  can1  18B   [6]  37 06 00 00 00 00
  can1  080   [0] 
  can1  18B   [6]  37 06 FF FF FF FF
  can1  080   [0] 
  can1  18B   [6]  37 06 00 00 00 00
  can1  080   [0] 
  can1  18B   [6]  37 06 00 00 00 00
  can1  080   [0] 
  can1  18B   [6]  37 06 FF FF FF FF
  can1  080   [0] 
  can1  18B   [6]  37 06 00 00 00 00
  can1  080   [0] 
  can1  18B   [6]  37 06 FF FF FF FF
  can1  080   [0] 
  can1  18B   [6]  37 06 FF FF FF FF
  can1  080   [0] 
  can1  18B   [6]  37 06 00 00 00 00
  can1  080   [0] 
  can1  18B   [6]  37 06 FF FF FF FF
  can1  080   [0] 
  can1  18B   [6]  37 06 00 00 00 00
  can1  080   [0] 
  can1  18B   [6]  37 06 00 00 00 00
  can1  080   [0] 
  can1  18B   [6]  37 06 FF FF FF FF
  can1  080   [0] 
  can1  18B   [6]  37 06 00 00 00 00
  can1  080   [0] 
  can1  18B   [6]  37 06 00 00 00 00
  can1  080   [0] 
  can1  18B   [6]  37 06 00 00 00 00
  can1  080   [0] 
  can1  18B   [6]  37 06 FF FF FF FF
  can1  20B   [6]  3F 10 4C 10 00 00
  can1  080   [0] 
  can1  18B   [6]  37 12 00 00 00 00
  can1  080   [0] 
  can1  18B   [6]  37 12 01 00 00 00
  can1  080   [0] 
  can1  18B   [6]  37 12 08 00 00 00
  can1  080   [0] 
  can1  18B   [6]  37 12 20 00 00 00
  can1  080   [0] 
  can1  18B   [6]  37 12 4C 00 00 00
  can1  080   [0] 
  can1  18B   [6]  37 12 8E 00 00 00
  can1  080   [0] 
  can1  18B   [6]  37 12 E8 00 00 00
  can1  080   [0] 
  can1  18B   [6]  37 12 59 01 00 00
  can1  080   [0] 
  can1  18B   [6]  37 12 DE 01 00 00
  can1  080   [0] 
  can1  18B   [6]  37 12 72 02 00 00
  can1  080   [0] 
  can1  18B   [6]  37 12 18 03 00 00
  can1  080   [0] 
  can1  18B   [6]  37 12 D0 03 00 00
  can1  080   [0] 
  can1  18B   [6]  37 12 93 04 00 00
  can1  080   [0] 
  can1  18B   [6]  37 12 69 05 00 00
  can1  080   [0] 
  can1  18B   [6]  37 12 52 06 00 00
  can1  080   [0] 
  can1  18B   [6]  37 12 4D 07 00 00
  can1  080   [0] 
  can1  18B   [6]  37 12 54 08 00 00
  can1  080   [0] 
  can1  18B   [6]  37 12 63 09 00 00
  can1  080   [0] 
  can1  18B   [6]  37 12 65 0A 00 00
  can1  080   [0] 
  can1  18B   [6]  37 12 54 0B 00 00
  can1  080   [0] 
  can1  18B   [6]  37 12 31 0C 00 00
  can1  080   [0] 
  can1  18B   [6]  37 12 F7 0C 00 00
  can1  080   [0] 
  can1  18B   [6]  37 12 A8 0D 00 00
  can1  080   [0] 
  can1  18B   [6]  37 12 45 0E 00 00
  can1  080   [0] 
  can1  18B   [6]  37 12 C9 0E 00 00
  can1  080   [0] 
  can1  18B   [6]  37 12 39 0F 00 00
  can1  080   [0] 
  can1  18B   [6]  37 12 9B 0F 00 00
  can1  080   [0] 
  can1  18B   [6]  37 12 EA 0F 00 00
  can1  080   [0] 
  can1  18B   [6]  37 16 2E 10 00 00
  can1  080   [0] 
  can1  18B   [6]  37 16 60 10 00 00
  can1  080   [0] 
  can1  18B   [6]  37 16 82 10 00 00
  can1  080   [0] 
  can1  18B   [6]  37 16 8F 10 00 00
  can1  080   [0] 
  can1  18B   [6]  37 16 8D 10 00 00
  can1  080   [0] 
  can1  18B   [6]  37 16 8A 10 00 00
  can1  080   [0] 
  can1  18B   [6]  37 16 85 10 00 00
  can1  080   [0] 
  can1  18B   [6]  37 16 80 10 00 00
  can1  080   [0] 
  can1  18B   [6]  37 16 7C 10 00 00
  can1  080   [0] 
  can1  18B   [6]  37 16 7D 10 00 00
  can1  080   [0] 
  can1  18B   [6]  37 16 7E 10 00 00
  can1  080   [0] 
  can1  18B   [6]  37 16 80 10 00 00
  can1  080   [0] 
  can1  18B   [6]  37 16 82 10 00 00
  can1  080   [0] 
  can1  18B   [6]  37 16 83 10 00 00
  can1  080   [0] 
  can1  18B   [6]  37 16 81 10 00 00
  can1  080   [0] 
  can1  18B   [6]  37 16 7E 10 00 00
  can1  080   [0] 
  can1  18B   [6]  37 16 7B 10 00 00
  can1  080   [0] 
  can1  18B   [6]  37 16 79 10 00 00
  can1  080   [0] 
  can1  18B   [6]  37 16 77 10 00 00
  can1  080   [0] 
  can1  18B   [6]  37 16 78 10 00 00
  can1  080   [0] 
  can1  18B   [6]  37 16 78 10 00 00
  can1  080   [0] 
  can1  18B   [6]  37 16 7B 10 00 00
  can1  080   [0] 
  can1  18B   [6]  37 16 7B 10 00 00
  can1  080   [0] 
  can1  18B   [6]  37 16 7B 10 00 00
  can1  080   [0] 
  can1  18B   [6]  37 16 78 10 00 00
  can1  080   [0] 
  can1  18B   [6]  37 16 73 10 00 00
  can1  080   [0] 
  can1  18B   [6]  37 16 6F 10 00 00
  can1  080   [0] 
  can1  18B   [6]  37 16 6B 10 00 00
  can1  080   [0] 
  can1  18B   [6]  37 16 69 10 00 00
  can1  080   [0] 
  can1  18B   [6]  37 16 69 10 00 00
  can1  080   [0] 
  can1  18B   [6]  37 16 6C 10 00 00
  can1  080   [0] 
  can1  18B   [6]  37 16 6C 10 00 00
  can1  080   [0] 
  can1  18B   [6]  37 16 6E 10 00 00
  can1  080   [0] 
  can1  18B   [6]  37 16 6C 10 00 00
  can1  080   [0] 
  can1  18B   [6]  37 16 6A 10 00 00
  can1  080   [0] 
  can1  18B   [6]  37 16 67 10 00 00
  can1  080   [0] 
  can1  18B   [6]  37 16 65 10 00 00
  can1  080   [0] 
  can1  18B   [6]  37 16 64 10 00 00
  can1  080   [0] 
  can1  18B   [6]  37 16 65 10 00 00
  can1  080   [0] 
  can1  18B   [6]  37 16 66 10 00 00
  can1  080   [0] 
  can1  18B   [6]  37 16 67 10 00 00
  can1  080   [0] 
  can1  18B   [6]  37 16 68 10 00 00
  can1  080   [0] 
  can1  18B   [6]  37 16 66 10 00 00
  can1  080   [0] 
  can1  18B   [6]  37 16 66 10 00 00
  can1  080   [0] 
  can1  18B   [6]  37 16 63 10 00 00
  can1  080   [0] 
  can1  18B   [6]  37 16 60 10 00 00
  can1  080   [0] 
  can1  18B   [6]  37 16 5C 10 00 00
  can1  080   [0] 
  can1  18B   [6]  37 16 59 10 00 00
  can1  080   [0] 
  can1  18B   [6]  37 16 5B 10 00 00
  can1  080   [0] 
  can1  18B   [6]  37 16 5B 10 00 00
  can1  080   [0] 
  can1  18B   [6]  37 16 5B 10 00 00
  can1  080   [0] 
  can1  18B   [6]  37 16 5B 10 00 00
  can1  080   [0] 
  can1  18B   [6]  37 16 5A 10 00 00
  can1  080   [0] 
  can1  18B   [6]  37 16 58 10 00 00
  can1  080   [0] 
  can1  18B   [6]  37 16 57 10 00 00
  can1  080   [0] 
  can1  18B   [6]  37 16 55 10 00 00
  can1  080   [0] 
  can1  18B   [6]  37 16 55 10 00 00
  can1  080   [0] 
  can1  18B   [6]  37 16 55 10 00 00
  can1  080   [0] 
  can1  18B   [6]  37 16 56 10 00 00
  can1  080   [0] 
  can1  18B   [6]  37 16 57 10 00 00
  can1  080   [0] 
  can1  18B   [6]  37 16 58 10 00 00
  can1  080   [0] 
  can1  18B   [6]  37 16 57 10 00 00
  can1  080   [0] 
  can1  18B   [6]  37 16 55 10 00 00
  can1  080   [0] 
  can1  18B   [6]  37 16 54 10 00 00
  can1  080   [0] 
  can1  18B   [6]  37 16 53 10 00 00
  can1  080   [0] 
  can1  18B   [6]  37 16 51 10 00 00
  can1  080   [0] 
  can1  18B   [6]  37 16 50 10 00 00
  can1  080   [0] 
  can1  18B   [6]  37 16 50 10 00 00
  can1  080   [0] 
  can1  18B   [6]  37 16 50 10 00 00
  can1  080   [0] 
  can1  18B   [6]  37 16 52 10 00 00
  can1  080   [0] 
  can1  18B   [6]  37 16 51 10 00 00
  can1  080   [0] 
  can1  18B   [6]  37 16 4F 10 00 00
  can1  20B   [6]  02 00 4C 10 00 00
  can1  080   [0] 
  can1  18B   [6]  37 16 4F 10 00 00
  can1  080   [0] 
  can1  18B   [6]  37 16 4F 10 00 00
  can1  080   [0] 
  can1  18B   [6]  37 16 4E 10 00 00
  can1  080   [0] 
  can1  18B   [6]  37 16 4D 10 00 00
  can1  080   [0] 
  can1  18B   [6]  37 16 4F 10 00 00
  can1  080   [0] 
  can1  18B   [6]  37 16 50 10 00 00
  can1  080   [0] 
  can1  18B   [6]  37 16 50 10 00 00
  can1  080   [0] 
  can1  18B   [6]  37 16 53 10 00 00
  can1  080   [0] 
  can1  18B   [6]  37 16 51 10 00 00
  can1  080   [0] 
  can1  18B   [6]  37 16 50 10 00 00
  can1  000   [2]  02 00
